(1638635499.340661) can0 0CEA2100#16F001
(1638635499.341995) can0 19F01621#A041020102013D01
(1638635499.342405) can0 19F01621#A14E4D4541323030
(1638635499.342966) can0 19F01621#A230206C69627261
(1638635499.343544) can0 19F01621#A372792C20687474
(1638635499.344185) can0 19F01621#A470733A2F2F6769
(1638635499.344737) can0 19F01621#A5746875622E636F
(1638635499.345106) can0 19F01621#A66D2F74746C6170
(1638635499.345687) can0 19F01621#A770616C61696E65
(1638635499.346214) can0 19F01621#A86E2F4E4D454132
(1638635499.346880) can0 19F01621#A9303030FFFFFFFF
(1638635499.354681) can0 09F80121#0D560224D531460D
(1638635499.366574) can0 0CEA2100#16F001
(1638635499.367495) can0 19F01621#C041020102013D01
(1638635499.368053) can0 19F01621#C14E4D4541323030
(1638635499.368597) can0 19F01621#C230206C69627261
(1638635499.369182) can0 19F01621#C372792C20687474
(1638635499.369682) can0 19F01621#C470733A2F2F6769
(1638635499.370180) can0 19F01621#C5746875622E636F
(1638635499.370793) can0 19F01621#C66D2F74746C6170
(1638635499.371268) can0 19F01621#C770616C61696E65
(1638635499.371920) can0 19F01621#C86E2F4E4D454132
(1638635499.372369) can0 19F01621#C9303030FFFFFFFF
(1638635499.381290) can0 09F20021#000000000021FFFF
(1638635499.395415) can0 0CEA2100#16F001
(1638635499.396371) can0 19F01621#E041020102013D01
(1638635499.396815) can0 19F01621#E14E4D4541323030
(1638635499.397360) can0 19F01621#E230206C69627261
(1638635499.397893) can0 19F01621#E372792C20687474
(1638635499.398429) can0 19F01621#E470733A2F2F6769
(1638635499.399035) can0 19F01621#E5746875622E636F
(1638635499.399672) can0 19F01621#E66D2F74746C6170
(1638635499.400032) can0 19F01621#E770616C61696E65
(1638635499.400688) can0 19F01621#E86E2F4E4D454132
(1638635499.401161) can0 19F01621#E9303030FFFFFFFF
(1638635499.408191) can0 0CEA2100#16F001
(1638635499.409075) can0 19F01621#0041020102013D01
(1638635499.409656) can0 19F01621#014E4D4541323030
(1638635499.410162) can0 19F01621#0230206C69627261
(1638635499.410678) can0 19F01621#0372792C20687474
(1638635499.411215) can0 19F01621#0470733A2F2F6769
(1638635499.411806) can0 19F01621#05746875622E636F
(1638635499.412303) can0 19F01621#066D2F74746C6170
(1638635499.412828) can0 19F01621#0770616C61696E65
(1638635499.413478) can0 19F01621#086E2F4E4D454132
(1638635499.414033) can0 19F01621#09303030FFFFFFFF
(1638635499.430322) can0 0CEA2100#16F001
(1638635499.431307) can0 19F01621#2041020102013D01
(1638635499.431810) can0 19F01621#214E4D4541323030
(1638635499.432462) can0 19F01621#2230206C69627261
(1638635499.432868) can0 19F01621#2372792C20687474
(1638635499.433481) can0 19F01621#2470733A2F2F6769
(1638635499.434085) can0 19F01621#25746875622E636F
(1638635499.434477) can0 19F01621#266D2F74746C6170
(1638635499.435155) can0 19F01621#2770616C61696E65
(1638635499.435715) can0 19F01621#286E2F4E4D454132
(1638635499.436209) can0 19F01621#29303030FFFFFFFF
(1638635499.436763) can0 0DF01021#0000154AD6898123
(1638635499.453346) can0 0CEA2100#16F001
(1638635499.454366) can0 19F01621#4041020102013D01
(1638635499.454953) can0 19F01621#414E4D4541323030
(1638635499.455494) can0 19F01621#4230206C69627261
(1638635499.456103) can0 19F01621#4372792C20687474
(1638635499.456553) can0 19F01621#4470733A2F2F6769
(1638635499.457182) can0 19F01621#45746875622E636F
(1638635499.457622) can0 19F01621#466D2F74746C6170
(1638635499.458183) can0 19F01621#4770616C61696E65
(1638635499.458755) can0 19F01621#486E2F4E4D454132
(1638635499.459365) can0 19F01621#49303030FFFFFFFF
(1638635499.459822) can0 09F80121#0D560224D531460D
(1638635499.460409) can0 09F80221#000000000000FFFF
(1638635499.481418) can0 09F20021#000000000021FFFF
(1638635499.555100) can0 09F80121#0D560224D531460D
(1638635499.580753) can0 09F20021#000000000021FFFF
(1638635499.588772) can0 09F20121#C01A0000008C102B
(1638635499.589233) can0 09F20121#C1890A050000E015
(1638635499.589876) can0 09F20121#C2640000000000FF
(1638635499.590443) can0 09F20121#C3000000000000FF
(1638635499.654830) can0 09F80121#0D560224D531460D
(1638635499.681016) can0 09F20021#000000000021FFFF
(1638635499.710603) can0 09F80221#000000000000FFFF
(1638635499.755152) can0 09F80121#0D560224D531460D
(1638635499.781532) can0 09F20021#000000000021FFFF
(1638635499.854723) can0 09F80121#0D560224D531460D
(1638635499.881453) can0 09F20021#000000000021FFFF
(1638635499.955311) can0 09F80121#0D560224D531460D
(1638635499.960015) can0 09F80221#000000000000FFFF
(1638635499.981076) can0 09F20021#000000000021FFFF
(1638635500.054805) can0 09F80121#0D560224D531460D
(1638635500.080760) can0 09F20021#000000000021FFFF
(1638635500.089047) can0 09F20121#E01A0000008C102B
(1638635500.089569) can0 09F20121#E1890A050000E015
(1638635500.090154) can0 09F20121#E2640000000000FF
(1638635500.090655) can0 09F20121#E3000000000000FF
(1638635500.154856) can0 09F80121#0D560224D531460D
(1638635500.181028) can0 09F20021#000000000021FFFF
(1638635500.210237) can0 09F80221#000000000000FFFF
(1638635500.254922) can0 09F80121#0D560224D531460D
(1638635500.280840) can0 09F20021#000000000021FFFF
(1638635500.325872) can0 19F01421#808634089A024E4D
(1638635500.326467) can0 19F01421#8145413230303020
(1638635500.326971) can0 19F01421#8273696D756C6174
(1638635500.327518) can0 19F01421#836F722047505300
(1638635500.328168) can0 19F01421#8400000000000000
(1638635500.328688) can0 19F01421#850000312E322E30
(1638635500.329203) can0 19F01421#862E313039000000
(1638635500.329792) can0 19F01421#8700000000000000
(1638635500.330390) can0 19F01421#8800000000000000
(1638635500.331008) can0 19F01421#8900000000000031
(1638635500.331550) can0 19F01421#8A2E322E302E3000
(1638635500.332077) can0 19F01421#8B00000000000000
(1638635500.332663) can0 19F01421#8C00000000000000
(1638635500.333239) can0 19F01421#8D00000000000000
(1638635500.333791) can0 19F01421#8E00000032303937
(1638635500.334434) can0 19F01421#8F31353100000000
(1638635500.334885) can0 19F01421#9000000000000000
(1638635500.335548) can0 19F01421#9100000000000000
(1638635500.336093) can0 19F01421#9200000000000000
(1638635500.336659) can0 19F01421#930101FFFFFFFFFF
(1638635500.337237) can0 18EEFF21#FFFFBFFF009178C0
(1638635500.339592) can0 0CEA2100#14F001
(1638635500.340825) can0 19F01421#A086350864004553
(1638635500.341303) can0 19F01421#A15033324E4D4541
(1638635500.341920) can0 19F01421#A2324BFFFFFFFFFF
(1638635500.342532) can0 19F01421#A3FFFFFFFFFFFFFF
(1638635500.343078) can0 19F01421#A4FFFFFFFFFFFFFF
(1638635500.343622) can0 19F01421#A5FFFF6465763230
(1638635500.344207) can0 19F01421#A6323131323034FF
(1638635500.344748) can0 19F01421#A7FFFFFFFFFFFFFF
(1638635500.345322) can0 19F01421#A8FFFFFFFFFFFFFF
(1638635500.345933) can0 19F01421#A9FFFFFFFFFFFF64
(1638635500.346440) can0 19F01421#AA65763230323131
(1638635500.346996) can0 19F01421#AB323034FFFFFFFF
(1638635500.347563) can0 19F01421#ACFFFFFFFFFFFFFF
(1638635500.348142) can0 19F01421#ADFFFFFFFFFFFFFF
(1638635500.348711) can0 19F01421#AEFFFFFF31FFFFFF
(1638635500.349293) can0 19F01421#AFFFFFFFFFFFFFFF
(1638635500.349870) can0 19F01421#B0FFFFFFFFFFFFFF
(1638635500.350446) can0 19F01421#B1FFFFFFFFFFFFFF
(1638635500.351060) can0 19F01421#B2FFFFFFFFFFFFFF
(1638635500.351595) can0 19F01421#B30003FFFFFFFFFF
(1638635500.352141) can0 19F01421#C08634089A024E4D
(1638635500.352698) can0 19F01421#C145413230303020
(1638635500.353242) can0 19F01421#C273696D756C6174
(1638635500.353830) can0 19F01421#C36F72204C6F6700
(1638635500.354362) can0 19F01421#C400000000000000
(1638635500.354891) can0 19F01421#C50000312E322E30
(1638635500.355507) can0 19F01421#C62E313039000000
(1638635500.356041) can0 19F01421#C700000000000000
(1638635500.356621) can0 19F01421#C800000000000000
(1638635500.357201) can0 19F01421#C900000000000031
(1638635500.357748) can0 19F01421#CA2E322E302E3000
(1638635500.358331) can0 19F01421#CB00000000000000
(1638635500.358905) can0 19F01421#CC00000000000000
(1638635500.359520) can0 19F01421#CD00000000000000
(1638635500.360081) can0 19F01421#CE00000032303937
(1638635500.360631) can0 19F01421#CF31353000000000
(1638635500.361175) can0 19F01421#D000000000000000
(1638635500.361756) can0 19F01421#D100000000000000
(1638635500.362398) can0 19F01421#D200000000000000
(1638635500.362893) can0 19F01421#D30101FFFFFFFFFF
(1638635500.363466) can0 18EEFF21#FEFFBFFF008778C0
(1638635500.365663) can0 19F01421#E08634089A024E4D
(1638635500.366013) can0 0CEA2100#14F001
(1638635500.366681) can0 19F01421#E145413230303020
(1638635500.367085) can0 19F01421#E273696D756C6174
(1638635500.367644) can0 19F01421#E36F722057696E64
(1638635500.368239) can0 19F01421#E4206D6574657200
(1638635500.368759) can0 19F01421#E50000312E322E30
(1638635500.369270) can0 19F01421#E62E313039000000
(1638635500.369918) can0 19F01421#E700000000000000
(1638635500.370459) can0 19F01421#E800000000000000
(1638635500.371020) can0 19F01421#E900000000000031
(1638635500.371568) can0 19F01421#EA2E322E302E3000
(1638635500.372154) can0 19F01421#EB00000000000000
(1638635500.372763) can0 19F01421#EC00000000000000
(1638635500.373312) can0 19F01421#ED00000000000000
(1638635500.373869) can0 19F01421#EE00000032303937
(1638635500.374436) can0 19F01421#EF31343900000000
(1638635500.375020) can0 19F01421#F000000000000000
(1638635500.375589) can0 19F01421#F100000000000000
(1638635500.376210) can0 19F01421#F200000000000000
(1638635500.376787) can0 19F01421#F30101FFFFFFFFFF
(1638635500.377302) can0 19F01421#0086350864004553
(1638635500.377818) can0 19F01421#015033324E4D4541
(1638635500.378419) can0 19F01421#02324BFFFFFFFFFF
(1638635500.379000) can0 19F01421#03FFFFFFFFFFFFFF
(1638635500.379606) can0 19F01421#04FFFFFFFFFFFFFF
(1638635500.380210) can0 19F01421#05FFFF6465763230
(1638635500.380643) can0 19F01421#06323131323034FF
(1638635500.381298) can0 19F01421#07FFFFFFFFFFFFFF
(1638635500.381826) can0 19F01421#08FFFFFFFFFFFFFF
(1638635500.382398) can0 19F01421#09FFFFFFFFFFFF64
(1638635500.382938) can0 19F01421#0A65763230323131
(1638635500.383500) can0 19F01421#0B323034FFFFFFFF
(1638635500.384151) can0 19F01421#0CFFFFFFFFFFFFFF
(1638635500.384684) can0 19F01421#0DFFFFFFFFFFFFFF
(1638635500.385238) can0 19F01421#0EFFFFFF31FFFFFF
(1638635500.385860) can0 19F01421#0FFFFFFFFFFFFFFF
(1638635500.386411) can0 19F01421#10FFFFFFFFFFFFFF
(1638635500.386990) can0 19F01421#11FFFFFFFFFFFFFF
(1638635500.387619) can0 19F01421#12FFFFFFFFFFFFFF
(1638635500.388198) can0 19F01421#130003FFFFFFFFFF
(1638635500.388701) can0 09F80121#0D560224D531460D
(1638635500.389198) can0 18EEFF21#FDFFBFFF0082AAC0
(1638635500.389824) can0 19F01421#208634089A024E4D
(1638635500.390428) can0 19F01421#2145413230303020
(1638635500.390920) can0 19F01421#2273696D756C6174
(1638635500.391427) can0 19F01421#236F72206F757473
(1638635500.392008) can0 19F01421#2469646520656E76
(1638635500.392492) can0 19F01421#256972312E322E30
(1638635500.393109) can0 19F01421#262E313039000000
(1638635500.393728) can0 19F01421#2700000000000000
(1638635500.394235) can0 19F01421#2800000000000000
(1638635500.394846) can0 19F01421#2900000000000031
(1638635500.395215) can0 0CEA2100#14F001
(1638635500.395830) can0 19F01421#2A2E322E302E3000
(1638635500.396405) can0 19F01421#2B00000000000000
(1638635500.396944) can0 19F01421#2C00000000000000
(1638635500.397531) can0 19F01421#2D00000000000000
(1638635500.398103) can0 19F01421#2E00000032303937
(1638635500.398668) can0 19F01421#2F31343800000000
(1638635500.399254) can0 19F01421#3000000000000000
(1638635500.399812) can0 19F01421#3100000000000000
(1638635500.400424) can0 19F01421#3200000000000000
(1638635500.400992) can0 19F01421#330101FFFFFFFFFF
(1638635500.401606) can0 09F20021#000000000021FFFF
(1638635500.402089) can0 18EEFF21#FCFFBFFF00A0AAC0
(1638635500.402686) can0 19F01421#4086350864004553
(1638635500.403281) can0 19F01421#415033324E4D4541
(1638635500.403804) can0 19F01421#42324BFFFFFFFFFF
(1638635500.404365) can0 19F01421#43FFFFFFFFFFFFFF
(1638635500.405021) can0 19F01421#44FFFFFFFFFFFFFF
(1638635500.405461) can0 19F01421#45FFFF6465763230
(1638635500.406031) can0 19F01421#46323131323034FF
(1638635500.406652) can0 19F01421#47FFFFFFFFFFFFFF
(1638635500.407195) can0 19F01421#48FFFFFFFFFFFFFF
(1638635500.407767) can0 19F01421#49FFFFFFFFFFFF64
(1638635500.408294) can0 19F01421#4A65763230323131
(1638635500.408862) can0 19F01421#4B323034FFFFFFFF
(1638635500.409528) can0 19F01421#4CFFFFFFFFFFFFFF
(1638635500.410024) can0 19F01421#4DFFFFFFFFFFFFFF
(1638635500.410599) can0 19F01421#4EFFFFFF31FFFFFF
(1638635500.411290) can0 19F01421#4FFFFFFFFFFFFFFF
(1638635500.411707) can0 19F01421#50FFFFFFFFFFFFFF
(1638635500.412104) can0 0CEA2100#14F001
(1638635500.412741) can0 19F01421#51FFFFFFFFFFFFFF
(1638635500.413315) can0 19F01421#52FFFFFFFFFFFFFF
(1638635500.413887) can0 19F01421#530003FFFFFFFFFF
(1638635500.414482) can0 19F01421#608634089A024E4D
(1638635500.414905) can0 19F01421#6145413230303020
(1638635500.415523) can0 19F01421#6273696D756C6174
(1638635500.416034) can0 19F01421#636F7220656E6769
(1638635500.416605) can0 19F01421#646E650000000000
(1638635500.417173) can0 19F01421#650000312E322E30
(1638635500.417737) can0 19F01421#662E313039000000
(1638635500.418234) can0 19F01421#6700000000000000
(1638635500.418866) can0 19F01421#6800000000000000
(1638635500.419422) can0 19F01421#6900000000000031
(1638635500.419922) can0 19F01421#6A2E322E302E3000
(1638635500.420601) can0 19F01421#6B00000000000000
(1638635500.421137) can0 19F01421#6C00000000000000
(1638635500.421756) can0 19F01421#6D00000000000000
(1638635500.422251) can0 19F01421#6E00000032303937
(1638635500.422833) can0 19F01421#6F31343700000000
(1638635500.423392) can0 19F01421#7000000000000000
(1638635500.424023) can0 19F01421#7100000000000000
(1638635500.424579) can0 19F01421#7200000000000000
(1638635500.425115) can0 19F01421#730101FFFFFFFFFF
(1638635500.425698) can0 18EEFF21#FBFFBFFF00A064C0
(1638635500.426247) can0 19F01421#8086350864004553
(1638635500.426808) can0 19F01421#815033324E4D4541
(1638635500.427317) can0 19F01421#82324BFFFFFFFFFF
(1638635500.427946) can0 19F01421#83FFFFFFFFFFFFFF
(1638635500.428515) can0 19F01421#84FFFFFFFFFFFFFF
(1638635500.429067) can0 19F01421#85FFFF6465763230
(1638635500.429615) can0 19F01421#86323131323034FF
(1638635500.430203) can0 19F01421#87FFFFFFFFFFFFFF
(1638635500.430814) can0 19F01421#88FFFFFFFFFFFFFF
(1638635500.431361) can0 19F01421#89FFFFFFFFFFFF64
(1638635500.431910) can0 19F01421#8A65763230323131
(1638635500.432456) can0 19F01421#8B323034FFFFFFFF
(1638635500.433079) can0 19F01421#8CFFFFFFFFFFFFFF
(1638635500.433618) can0 19F01421#8DFFFFFFFFFFFFFF
(1638635500.434185) can0 19F01421#8EFFFFFF31FFFFFF
(1638635500.434758) can0 19F01421#8FFFFFFFFFFFFFFF
(1638635500.435115) can0 0CEA2100#14F001
(1638635500.435752) can0 19F01421#90FFFFFFFFFFFFFF
(1638635500.436281) can0 19F01421#91FFFFFFFFFFFFFF
(1638635500.436918) can0 19F01421#92FFFFFFFFFFFFFF
(1638635500.437453) can0 19F01421#930003FFFFFFFFFF
(1638635500.437997) can0 19F01421#A08634089A024E4D
(1638635500.438550) can0 19F01421#A145413230303020
(1638635500.439076) can0 19F01421#A273696D756C6174
(1638635500.439620) can0 19F01421#A36F7220666C7569
(1638635500.440173) can0 19F01421#A464206C6576656C
(1638635500.440712) can0 19F01421#A50000312E322E30
(1638635500.441273) can0 19F01421#A62E313039000000
(1638635500.441853) can0 19F01421#A700000000000000
(1638635500.442428) can0 19F01421#A800000000000000
(1638635500.442994) can0 19F01421#A900000000000031
(1638635500.443543) can0 19F01421#AA2E322E302E3000
(1638635500.444157) can0 19F01421#AB00000000000000
(1638635500.444705) can0 19F01421#AC00000000000000
(1638635500.445285) can0 19F01421#AD00000000000000
(1638635500.445842) can0 19F01421#AE00000032303937
(1638635500.446352) can0 19F01421#AF31343600000000
(1638635500.446938) can0 19F01421#B000000000000000
(1638635500.447611) can0 19F01421#B100000000000000
(1638635500.448142) can0 19F01421#B200000000000000
(1638635500.448724) can0 19F01421#B30101FFFFFFFFFF
(1638635500.449262) can0 18EEFF21#FAFFBFFF009696C0
(1638635500.449826) can0 0DF01021#0000154ACCB18123
(1638635500.450365) can0 19F01421#C086350864004553
(1638635500.450962) can0 19F01421#C15033324E4D4541
(1638635500.451482) can0 19F01421#C2324BFFFFFFFFFF
(1638635500.452098) can0 19F01421#C3FFFFFFFFFFFFFF
(1638635500.452653) can0 19F01421#C4FFFFFFFFFFFFFF
(1638635500.453194) can0 19F01421#C5FFFF6465763230
(1638635500.453718) can0 19F01421#C6323131323034FF
(1638635500.454325) can0 19F01421#C7FFFFFFFFFFFFFF
(1638635500.454897) can0 19F01421#C8FFFFFFFFFFFFFF
(1638635500.455469) can0 19F01421#C9FFFFFFFFFFFF64
(1638635500.456154) can0 19F01421#CA65763230323131
(1638635500.456620) can0 19F01421#CB323034FFFFFFFF
(1638635500.456924) can0 0CEA2100#14F001
(1638635500.457482) can0 19F01421#CCFFFFFFFFFFFFFF
(1638635500.458071) can0 19F01421#CDFFFFFFFFFFFFFF
(1638635500.458633) can0 19F01421#CEFFFFFF31FFFFFF
(1638635500.459202) can0 19F01421#CFFFFFFFFFFFFFFF
(1638635500.459775) can0 19F01421#D0FFFFFFFFFFFFFF
(1638635500.460362) can0 19F01421#D1FFFFFFFFFFFFFF
(1638635500.460932) can0 19F01421#D2FFFFFFFFFFFFFF
(1638635500.461471) can0 19F01421#D30003FFFFFFFFFF
(1638635500.462057) can0 09F80121#0D560224D531460D
(1638635500.462602) can0 19F01421#E086350864004553
(1638635500.463119) can0 19F01421#E15033324E4D4541
(1638635500.463695) can0 19F01421#E2324BFFFFFFFFFF
(1638635500.464295) can0 19F01421#E3FFFFFFFFFFFFFF
(1638635500.464881) can0 19F01421#E4FFFFFFFFFFFFFF
(1638635500.465443) can0 19F01421#E5FFFF6465763230
(1638635500.465965) can0 19F01421#E6323131323034FF
(1638635500.466565) can0 19F01421#E7FFFFFFFFFFFFFF
(1638635500.467155) can0 19F01421#E8FFFFFFFFFFFFFF
(1638635500.467656) can0 19F01421#E9FFFFFFFFFFFF64
(1638635500.468225) can0 19F01421#EA65763230323131
(1638635500.468816) can0 19F01421#EB323034FFFFFFFF
(1638635500.469354) can0 19F01421#ECFFFFFFFFFFFFFF
(1638635500.469934) can0 19F01421#EDFFFFFFFFFFFFFF
(1638635500.470505) can0 19F01421#EEFFFFFF31FFFFFF
(1638635500.471089) can0 19F01421#EFFFFFFFFFFFFFFF
(1638635500.471665) can0 19F01421#F0FFFFFFFFFFFFFF
(1638635500.472241) can0 19F01421#F1FFFFFFFFFFFFFF
(1638635500.472821) can0 19F01421#F2FFFFFFFFFFFFFF
(1638635500.473376) can0 19F01421#F30003FFFFFFFFFF
(1638635500.474021) can0 09F80221#000000000000FFFF
(1638635500.481371) can0 09F20021#000000000021FFFF
(1638635500.544567) can0 15FD0821#0000008F70FFFFFF
(1638635500.551011) can0 15FD0821#00010455735573FF
(1638635500.554622) can0 09F80121#0D560224D531460D
(1638635500.557868) can0 19FD0921#00010078370429FF
(1638635500.561281) can0 15FD0A21#00000008750F00FF
(1638635500.580770) can0 09F20021#000000000021FFFF
(1638635500.588751) can0 09F20121#001A0000008C102B
(1638635500.589310) can0 09F20121#01890A050000E015
(1638635500.589880) can0 09F20121#02640000000000FF
(1638635500.590467) can0 09F20121#03000000000000FF
(1638635500.655078) can0 09F80121#0D560224D531460D
(1638635500.659462) can0 19F21421#000A05CCFFBD6FFF
(1638635500.662644) can0 19F21421#0120034202BD6FFF
(1638635500.681074) can0 09F20021#000000000021FFFF
(1638635500.718122) can0 09F80221#000000000000FFFF
(1638635500.754713) can0 09F80121#0D560224D531460D
(1638635500.781296) can0 09F20021#000000000021FFFF
(1638635500.854570) can0 09F80121#0D560224D531460D
(1638635500.881203) can0 09F20021#000000000021FFFF
(1638635500.955116) can0 09F80121#0D560224D531460D
(1638635500.960007) can0 09F80221#000000000000FFFF
(1638635500.981172) can0 09F20021#000000000021FFFF
(1638635501.054666) can0 09F80121#0D560224D531460D
(1638635501.081156) can0 09F20021#000000000021FFFF
(1638635501.088316) can0 09F20121#201A0000008C102B
(1638635501.088845) can0 09F20121#21890A050000E015
(1638635501.089407) can0 09F20121#22640000000000FF
(1638635501.090019) can0 09F20121#23000000000000FF
(1638635501.154982) can0 09F80121#0D560224D531460D
(1638635501.180860) can0 09F20021#000000000021FFFF
(1638635501.196715) can0 19F21121#00E204A00F0000FF
(1638635501.200838) can0 19F21121#012F04AC0D0000FF
(1638635501.206055) can0 19F21121#128306B80B0000FF
(1638635501.210744) can0 19F21121#13F40188130000FF
(1638635501.212914) can0 09F80221#000000000000FFFF
(1638635501.255095) can0 09F80121#0D560224D531460D
(1638635501.280928) can0 09F20021#000000000021FFFF
(1638635501.340710) can0 0CEA2100#16F001
(1638635501.341841) can0 19F01621#6041020102013D01
(1638635501.342350) can0 19F01621#614E4D4541323030
(1638635501.342857) can0 19F01621#6230206C69627261
(1638635501.343446) can0 19F01621#6372792C20687474
(1638635501.344005) can0 19F01621#6470733A2F2F6769
(1638635501.344465) can0 19F01621#65746875622E636F
(1638635501.345004) can0 19F01621#666D2F74746C6170
(1638635501.345637) can0 19F01621#6770616C61696E65
(1638635501.346074) can0 19F01621#686E2F4E4D454132
(1638635501.346709) can0 19F01621#69303030FFFFFFFF
(1638635501.354668) can0 09F80121#0D560224D531460D
(1638635501.368088) can0 0CEA2100#16F001
(1638635501.368952) can0 19F01621#8041020102013D01
(1638635501.369511) can0 19F01621#814E4D4541323030
(1638635501.369943) can0 19F01621#8230206C69627261
(1638635501.370607) can0 19F01621#8372792C20687474
(1638635501.371113) can0 19F01621#8470733A2F2F6769
(1638635501.371616) can0 19F01621#85746875622E636F
(1638635501.372145) can0 19F01621#866D2F74746C6170
(1638635501.372695) can0 19F01621#8770616C61696E65
(1638635501.373263) can0 19F01621#886E2F4E4D454132
(1638635501.373801) can0 19F01621#89303030FFFFFFFF
(1638635501.381478) can0 09F20021#000000000021FFFF
(1638635501.392061) can0 0CEA2100#16F001
(1638635501.393087) can0 19F01621#A041020102013D01
(1638635501.393758) can0 19F01621#A14E4D4541323030
(1638635501.394227) can0 19F01621#A230206C69627261
(1638635501.394720) can0 19F01621#A372792C20687474
(1638635501.395263) can0 19F01621#A470733A2F2F6769
(1638635501.395891) can0 19F01621#A5746875622E636F
(1638635501.396269) can0 19F01621#A66D2F74746C6170
(1638635501.396794) can0 19F01621#A770616C61696E65
(1638635501.397479) can0 19F01621#A86E2F4E4D454132
(1638635501.397980) can0 19F01621#A9303030FFFFFFFF
(1638635501.404193) can0 0CEA2100#16F001
(1638635501.404917) can0 19F01621#C041020102013D01
(1638635501.405467) can0 19F01621#C14E4D4541323030
(1638635501.406027) can0 19F01621#C230206C69627261
(1638635501.406732) can0 19F01621#C372792C20687474
(1638635501.407097) can0 19F01621#C470733A2F2F6769
(1638635501.407737) can0 19F01621#C5746875622E636F
(1638635501.408210) can0 19F01621#C66D2F74746C6170
(1638635501.408711) can0 19F01621#C770616C61696E65
(1638635501.409317) can0 19F01621#C86E2F4E4D454132
(1638635501.409813) can0 19F01621#C9303030FFFFFFFF
(1638635501.435675) can0 0DF01021#0000154AD0D58123
(1638635501.440769) can0 0CEA2100#16F001
(1638635501.441700) can0 19F01621#E041020102013D01
(1638635501.442135) can0 19F01621#E14E4D4541323030
(1638635501.442771) can0 19F01621#E230206C69627261
(1638635501.443266) can0 19F01621#E372792C20687474
(1638635501.443747) can0 19F01621#E470733A2F2F6769
(1638635501.444383) can0 19F01621#E5746875622E636F
(1638635501.444846) can0 19F01621#E66D2F74746C6170
(1638635501.445423) can0 19F01621#E770616C61696E65
(1638635501.445953) can0 19F01621#E86E2F4E4D454132
(1638635501.446556) can0 19F01621#E9303030FFFFFFFF
(1638635501.454336) can0 0CEA2100#16F001
(1638635501.454825) can0 09F80121#0D560224D531460D
(1638635501.455489) can0 19F01621#0041020102013D01
(1638635501.456034) can0 19F01621#014E4D4541323030
(1638635501.456544) can0 19F01621#0230206C69627261
(1638635501.457078) can0 19F01621#0372792C20687474
(1638635501.457653) can0 19F01621#0470733A2F2F6769
(1638635501.458107) can0 19F01621#05746875622E636F
(1638635501.458709) can0 19F01621#066D2F74746C6170
(1638635501.459294) can0 19F01621#0770616C61696E65
(1638635501.459856) can0 19F01621#086E2F4E4D454132
(1638635501.460431) can0 19F01621#09303030FFFFFFFF
(1638635501.460942) can0 09F80221#000000000000FFFF
(1638635501.481157) can0 09F20021#000000000021FFFF
(1638635501.560036) can0 09F80121#0D560224D531460D
(1638635501.581503) can0 09F20021#000000000021FFFF
(1638635501.589075) can0 09F20121#401A0000008C102B
(1638635501.589657) can0 09F20121#41890A050000E015
(1638635501.590180) can0 09F20121#42640000000000FF
(1638635501.590915) can0 09F20121#43000000000000FF
(1638635501.655137) can0 09F80121#0D560224D531460D
(1638635501.681051) can0 09F20021#000000000021FFFF
(1638635501.710742) can0 09F80221#000000000000FFFF
(1638635501.754713) can0 09F80121#0D560224D531460D
(1638635501.780985) can0 09F20021#000000000021FFFF
(1638635501.855479) can0 09F80121#0D560224D531460D
(1638635501.882904) can0 09F20021#000000000021FFFF
(1638635501.955084) can0 09F80121#0D560224D531460D
(1638635501.960256) can0 09F80221#000000000000FFFF
(1638635501.982067) can0 09F20021#000000000021FFFF
(1638635502.054745) can0 09F80121#0D560224D531460D
(1638635502.081206) can0 09F20021#000000000021FFFF
(1638635502.088474) can0 09F20121#601A0000008C102B
(1638635502.088926) can0 09F20121#61890A050000E015
(1638635502.089686) can0 09F20121#62640000000000FF
(1638635502.090074) can0 09F20121#63000000000000FF
(1638635502.157092) can0 19F21421#000A05CCFFBD6FFF
(1638635502.158382) can0 09F80121#0D560224D531460D
(1638635502.162098) can0 19F21421#0120034202BD6FFF
(1638635502.181235) can0 09F20021#000000000021FFFF
(1638635502.210396) can0 09F80221#000000000000FFFF
(1638635502.254947) can0 09F80121#0D560224D531460D
(1638635502.281225) can0 09F20021#000000000021FFFF
(1638635502.326065) can0 19F01421#008634089A024E4D
(1638635502.326629) can0 19F01421#0145413230303020
(1638635502.327149) can0 19F01421#0273696D756C6174
(1638635502.327705) can0 19F01421#036F722047505300
(1638635502.328340) can0 19F01421#0400000000000000
(1638635502.328891) can0 19F01421#050000312E322E30
(1638635502.329451) can0 19F01421#062E313039000000
(1638635502.329963) can0 19F01421#0700000000000000
(1638635502.330584) can0 19F01421#0800000000000000
(1638635502.331196) can0 19F01421#0900000000000031
(1638635502.331707) can0 19F01421#0A2E322E302E3000
(1638635502.332288) can0 19F01421#0B00000000000000
(1638635502.332875) can0 19F01421#0C00000000000000
(1638635502.333459) can0 19F01421#0D00000000000000
(1638635502.334078) can0 19F01421#0E00000032303937
(1638635502.334549) can0 19F01421#0F31353100000000
(1638635502.335166) can0 19F01421#1000000000000000
(1638635502.335784) can0 19F01421#1100000000000000
(1638635502.336364) can0 19F01421#1200000000000000
(1638635502.336940) can0 19F01421#130101FFFFFFFFFF
(1638635502.337515) can0 18EEFF21#FFFFBFFF009178C0
(1638635502.339278) can0 0CEA2100#14F001
(1638635502.340339) can0 19F01421#2086350864004553
(1638635502.340882) can0 19F01421#215033324E4D4541
(1638635502.341391) can0 19F01421#22324BFFFFFFFFFF
(1638635502.342019) can0 19F01421#23FFFFFFFFFFFFFF
(1638635502.342604) can0 19F01421#24FFFFFFFFFFFFFF
(1638635502.343153) can0 19F01421#25FFFF6465763230
(1638635502.343651) can0 19F01421#26323131323034FF
(1638635502.344275) can0 19F01421#27FFFFFFFFFFFFFF
(1638635502.344896) can0 19F01421#28FFFFFFFFFFFFFF
(1638635502.345447) can0 19F01421#29FFFFFFFFFFFF64
(1638635502.345969) can0 19F01421#2A65763230323131
(1638635502.346580) can0 19F01421#2B323034FFFFFFFF
(1638635502.347128) can0 19F01421#2CFFFFFFFFFFFFFF
(1638635502.347704) can0 19F01421#2DFFFFFFFFFFFFFF
(1638635502.348274) can0 19F01421#2EFFFFFF31FFFFFF
(1638635502.348891) can0 19F01421#2FFFFFFFFFFFFFFF
(1638635502.349472) can0 19F01421#30FFFFFFFFFFFFFF
(1638635502.350060) can0 19F01421#31FFFFFFFFFFFFFF
(1638635502.350639) can0 19F01421#32FFFFFFFFFFFFFF
(1638635502.351215) can0 19F01421#330003FFFFFFFFFF
(1638635502.351780) can0 19F01421#408634089A024E4D
(1638635502.352321) can0 19F01421#4145413230303020
(1638635502.352772) can0 19F01421#4273696D756C6174
(1638635502.353413) can0 19F01421#436F72204C6F6700
(1638635502.353955) can0 19F01421#4400000000000000
(1638635502.354468) can0 19F01421#450000312E322E30
(1638635502.355058) can0 19F01421#462E313039000000
(1638635502.355692) can0 19F01421#4700000000000000
(1638635502.356254) can0 19F01421#4800000000000000
(1638635502.356816) can0 19F01421#4900000000000031
(1638635502.357346) can0 19F01421#4A2E322E302E3000
(1638635502.357886) can0 19F01421#4B00000000000000
(1638635502.358532) can0 19F01421#4C00000000000000
(1638635502.359099) can0 19F01421#4D00000000000000
(1638635502.359655) can0 19F01421#4E00000032303937
(1638635502.360218) can0 19F01421#4F31353000000000
(1638635502.360800) can0 19F01421#5000000000000000
(1638635502.361383) can0 19F01421#5100000000000000
(1638635502.361958) can0 19F01421#5200000000000000
(1638635502.362497) can0 19F01421#530101FFFFFFFFFF
(1638635502.363114) can0 18EEFF21#FEFFBFFF008778C0
(1638635502.365688) can0 19F01421#608634089A024E4D
(1638635502.366216) can0 19F01421#6145413230303020
(1638635502.366743) can0 19F01421#6273696D756C6174
(1638635502.367115) can0 0CEA2100#14F001
(1638635502.367688) can0 19F01421#636F722057696E64
(1638635502.368232) can0 19F01421#64206D6574657200
(1638635502.368784) can0 19F01421#650000312E322E30
(1638635502.369287) can0 19F01421#662E313039000000
(1638635502.369899) can0 19F01421#6700000000000000
(1638635502.370477) can0 19F01421#6800000000000000
(1638635502.371057) can0 19F01421#6900000000000031
(1638635502.371567) can0 19F01421#6A2E322E302E3000
(1638635502.372212) can0 19F01421#6B00000000000000
(1638635502.372807) can0 19F01421#6C00000000000000
(1638635502.373348) can0 19F01421#6D00000000000000
(1638635502.373905) can0 19F01421#6E00000032303937
(1638635502.374493) can0 19F01421#6F31343900000000
(1638635502.375046) can0 19F01421#7000000000000000
(1638635502.375577) can0 19F01421#7100000000000000
(1638635502.376200) can0 19F01421#7200000000000000
(1638635502.376807) can0 19F01421#730101FFFFFFFFFF
(1638635502.377333) can0 19F01421#8086350864004553
(1638635502.377902) can0 19F01421#815033324E4D4541
(1638635502.378449) can0 19F01421#82324BFFFFFFFFFF
(1638635502.379040) can0 19F01421#83FFFFFFFFFFFFFF
(1638635502.379597) can0 19F01421#84FFFFFFFFFFFFFF
(1638635502.380151) can0 19F01421#85FFFF6465763230
(1638635502.380741) can0 19F01421#86323131323034FF
(1638635502.381303) can0 19F01421#87FFFFFFFFFFFFFF
(1638635502.381877) can0 19F01421#88FFFFFFFFFFFFFF
(1638635502.382454) can0 19F01421#89FFFFFFFFFFFF64
(1638635502.382957) can0 19F01421#8A65763230323131
(1638635502.383520) can0 19F01421#8B323034FFFFFFFF
(1638635502.384129) can0 19F01421#8CFFFFFFFFFFFFFF
(1638635502.384678) can0 19F01421#8DFFFFFFFFFFFFFF
(1638635502.385247) can0 19F01421#8EFFFFFF31FFFFFF
(1638635502.385785) can0 19F01421#8FFFFFFFFFFFFFFF
(1638635502.386374) can0 19F01421#90FFFFFFFFFFFFFF
(1638635502.386927) can0 19F01421#91FFFFFFFFFFFFFF
(1638635502.387511) can0 19F01421#92FFFFFFFFFFFFFF
(1638635502.388083) can0 19F01421#930003FFFFFFFFFF
(1638635502.388605) can0 09F80121#0D560224D531460D
(1638635502.389206) can0 18EEFF21#FDFFBFFF0082AAC0
(1638635502.389733) can0 19F01421#A08634089A024E4D
(1638635502.390354) can0 19F01421#A145413230303020
(1638635502.390815) can0 19F01421#A273696D756C6174
(1638635502.391395) can0 19F01421#A36F72206F757473
(1638635502.391787) can0 0CEA2100#14F001
(1638635502.392292) can0 19F01421#A469646520656E76
(1638635502.392803) can0 19F01421#A56972312E322E30
(1638635502.393386) can0 19F01421#A62E313039000000
(1638635502.393984) can0 19F01421#A700000000000000
(1638635502.394550) can0 19F01421#A800000000000000
(1638635502.395121) can0 19F01421#A900000000000031
(1638635502.395660) can0 19F01421#AA2E322E302E3000
(1638635502.396209) can0 19F01421#AB00000000000000
(1638635502.396811) can0 19F01421#AC00000000000000
(1638635502.397389) can0 19F01421#AD00000000000000
(1638635502.397951) can0 19F01421#AE00000032303937
(1638635502.398511) can0 19F01421#AF31343800000000
(1638635502.399091) can0 19F01421#B000000000000000
(1638635502.399666) can0 19F01421#B100000000000000
(1638635502.400242) can0 19F01421#B200000000000000
(1638635502.400818) can0 19F01421#B30101FFFFFFFFFF
(1638635502.401337) can0 18EEFF21#FCFFBFFF00A0AAC0
(1638635502.401979) can0 09F20021#000000000021FFFF
(1638635502.402490) can0 19F01421#C086350864004553
(1638635502.403068) can0 19F01421#C15033324E4D4541
(1638635502.403433) can0 0CEA2100#14F001
(1638635502.404007) can0 19F01421#C2324BFFFFFFFFFF
(1638635502.404570) can0 19F01421#C3FFFFFFFFFFFFFF
(1638635502.405165) can0 19F01421#C4FFFFFFFFFFFFFF
(1638635502.405695) can0 19F01421#C5FFFF6465763230
(1638635502.406240) can0 19F01421#C6323131323034FF
(1638635502.406832) can0 19F01421#C7FFFFFFFFFFFFFF
(1638635502.407444) can0 19F01421#C8FFFFFFFFFFFFFF
(1638635502.407989) can0 19F01421#C9FFFFFFFFFFFF64
(1638635502.408530) can0 19F01421#CA65763230323131
(1638635502.409064) can0 19F01421#CB323034FFFFFFFF
(1638635502.409672) can0 19F01421#CCFFFFFFFFFFFFFF
(1638635502.410221) can0 19F01421#CDFFFFFFFFFFFFFF
(1638635502.410788) can0 19F01421#CEFFFFFF31FFFFFF
(1638635502.411377) can0 19F01421#CFFFFFFFFFFFFFFF
(1638635502.411953) can0 19F01421#D0FFFFFFFFFFFFFF
(1638635502.412534) can0 19F01421#D1FFFFFFFFFFFFFF
(1638635502.413109) can0 19F01421#D2FFFFFFFFFFFFFF
(1638635502.413682) can0 19F01421#D30003FFFFFFFFFF
(1638635502.414287) can0 19F01421#E086350864004553
(1638635502.414817) can0 19F01421#E15033324E4D4541
(1638635502.415381) can0 19F01421#E2324BFFFFFFFFFF
(1638635502.416000) can0 19F01421#E3FFFFFFFFFFFFFF
(1638635502.416537) can0 19F01421#E4FFFFFFFFFFFFFF
(1638635502.417084) can0 19F01421#E5FFFF6465763230
(1638635502.417628) can0 19F01421#E6323131323034FF
(1638635502.418205) can0 19F01421#E7FFFFFFFFFFFFFF
(1638635502.418781) can0 19F01421#E8FFFFFFFFFFFFFF
(1638635502.419352) can0 19F01421#E9FFFFFFFFFFFF64
(1638635502.419889) can0 19F01421#EA65763230323131
(1638635502.420452) can0 19F01421#EB323034FFFFFFFF
(1638635502.421026) can0 19F01421#ECFFFFFFFFFFFFFF
(1638635502.421605) can0 19F01421#EDFFFFFFFFFFFFFF
(1638635502.422149) can0 19F01421#EEFFFFFF31FFFFFF
(1638635502.422761) can0 19F01421#EFFFFFFFFFFFFFFF
(1638635502.423338) can0 19F01421#F0FFFFFFFFFFFFFF
(1638635502.423912) can0 19F01421#F1FFFFFFFFFFFFFF
(1638635502.424466) can0 19F01421#F2FFFFFFFFFFFFFF
(1638635502.425038) can0 19F01421#F30003FFFFFFFFFF
(1638635502.425599) can0 19F01421#008634089A024E4D
(1638635502.426173) can0 19F01421#0145413230303020
(1638635502.426722) can0 19F01421#0273696D756C6174
(1638635502.427299) can0 19F01421#036F7220656E6769
(1638635502.427832) can0 19F01421#046E650000000000
(1638635502.428355) can0 19F01421#050000312E322E30
(1638635502.428943) can0 19F01421#062E313039000000
(1638635502.429527) can0 19F01421#0700000000000000
(1638635502.430088) can0 19F01421#0800000000000000
(1638635502.430663) can0 19F01421#0900000000000031
(1638635502.431215) can0 19F01421#0A2E322E302E3000
(1638635502.431829) can0 19F01421#0B00000000000000
(1638635502.432383) can0 19F01421#0C00000000000000
(1638635502.432992) can0 19F01421#0D00000000000000
(1638635502.433553) can0 19F01421#0E00000032303937
(1638635502.434114) can0 19F01421#0F31343700000000
(1638635502.434699) can0 19F01421#1000000000000000
(1638635502.435290) can0 19F01421#1100000000000000
(1638635502.435841) can0 19F01421#1200000000000000
(1638635502.436417) can0 19F01421#130101FFFFFFFFFF
(1638635502.436991) can0 18EEFF21#FBFFBFFF00A064C0
(1638635502.437581) can0 19F01421#208634089A024E4D
(1638635502.438104) can0 19F01421#2145413230303020
(1638635502.438662) can0 19F01421#2273696D756C6174
(1638635502.439066) can0 0CEA2100#14F001
(1638635502.439586) can0 19F01421#236F7220666C7569
(1638635502.440132) can0 19F01421#2464206C6576656C
(1638635502.440656) can0 19F01421#250000312E322E30
(1638635502.441209) can0 19F01421#262E313039000000
(1638635502.441792) can0 19F01421#2700000000000000
(1638635502.442371) can0 19F01421#2800000000000000
(1638635502.442951) can0 19F01421#2900000000000031
(1638635502.443512) can0 19F01421#2A2E322E302E3000
(1638635502.444121) can0 19F01421#2B00000000000000
(1638635502.444702) can0 19F01421#2C00000000000000
(1638635502.445282) can0 19F01421#2D00000000000000
(1638635502.445845) can0 19F01421#2E00000032303937
(1638635502.446382) can0 19F01421#2F31343600000000
(1638635502.446969) can0 19F01421#3000000000000000
(1638635502.447549) can0 19F01421#3100000000000000
(1638635502.448161) can0 19F01421#3200000000000000
(1638635502.448741) can0 19F01421#330101FFFFFFFFFF
(1638635502.449303) can0 18EEFF21#FAFFBFFF009696C0
(1638635502.449842) can0 0DF01021#0000154AC6FD8123
(1638635502.450384) can0 19F01421#4086350864004553
(1638635502.450924) can0 19F01421#415033324E4D4541
(1638635502.451331) can0 0CEA2100#14F001
(1638635502.451878) can0 19F01421#42324BFFFFFFFFFF
(1638635502.452489) can0 19F01421#43FFFFFFFFFFFFFF
(1638635502.453029) can0 19F01421#44FFFFFFFFFFFFFF
(1638635502.453575) can0 19F01421#45FFFF6465763230
(1638635502.454113) can0 19F01421#46323131323034FF
(1638635502.454729) can0 19F01421#47FFFFFFFFFFFFFF
(1638635502.455299) can0 19F01421#48FFFFFFFFFFFFFF
(1638635502.455874) can0 19F01421#49FFFFFFFFFFFF64
(1638635502.456404) can0 19F01421#4A65763230323131
(1638635502.456962) can0 19F01421#4B323034FFFFFFFF
(1638635502.457538) can0 19F01421#4CFFFFFFFFFFFFFF
(1638635502.458113) can0 19F01421#4DFFFFFFFFFFFFFF
(1638635502.458689) can0 19F01421#4EFFFFFF31FFFFFF
(1638635502.459269) can0 19F01421#4FFFFFFFFFFFFFFF
(1638635502.459845) can0 19F01421#50FFFFFFFFFFFFFF
(1638635502.460421) can0 19F01421#51FFFFFFFFFFFFFF
(1638635502.460971) can0 19F01421#52FFFFFFFFFFFFFF
(1638635502.461573) can0 19F01421#530003FFFFFFFFFF
(1638635502.462110) can0 19F01421#6086350864004553
(1638635502.462710) can0 19F01421#615033324E4D4541
(1638635502.463233) can0 19F01421#62324BFFFFFFFFFF
(1638635502.463813) can0 19F01421#63FFFFFFFFFFFFFF
(1638635502.464387) can0 19F01421#64FFFFFFFFFFFFFF
(1638635502.464936) can0 19F01421#65FFFF6465763230
(1638635502.465480) can0 19F01421#66323131323034FF
(1638635502.466055) can0 19F01421#67FFFFFFFFFFFFFF
(1638635502.466604) can0 19F01421#68FFFFFFFFFFFFFF
(1638635502.467200) can0 19F01421#69FFFFFFFFFFFF64
(1638635502.467744) can0 19F01421#6A65763230323131
(1638635502.468309) can0 19F01421#6B323034FFFFFFFF
(1638635502.468886) can0 19F01421#6CFFFFFFFFFFFFFF
(1638635502.469461) can0 19F01421#6DFFFFFFFFFFFFFF
(1638635502.470028) can0 19F01421#6EFFFFFF31FFFFFF
(1638635502.470609) can0 19F01421#6FFFFFFFFFFFFFFF
(1638635502.471190) can0 19F01421#70FFFFFFFFFFFFFF
(1638635502.471738) can0 19F01421#71FFFFFFFFFFFFFF
(1638635502.472342) can0 19F01421#72FFFFFFFFFFFFFF
(1638635502.472918) can0 19F01421#730003FFFFFFFFFF
(1638635502.473473) can0 09F80121#0D560224D531460D
(1638635502.474117) can0 09F80221#000000000000FFFF
(1638635502.481671) can0 09F20021#000000000021FFFF
(1638635502.545851) can0 15FD0821#0000008F70FFFFFF
(1638635502.551533) can0 15FD0821#00010455735573FF
(1638635502.554374) can0 09F80121#0D560224D531460D
(1638635502.557972) can0 19FD0921#00010078370429FF
(1638635502.561186) can0 15FD0A21#00000008750F00FF
(1638635502.581179) can0 09F20021#000000000021FFFF
(1638635502.588070) can0 09F20121#801A0000008C102B
(1638635502.588650) can0 09F20121#81890A050000E015
(1638635502.589198) can0 09F20121#82640000000000FF
(1638635502.589775) can0 09F20121#83000000000000FF
(1638635502.655106) can0 09F80121#0D560224D531460D
(1638635502.680655) can0 09F20021#000000000021FFFF
(1638635502.710332) can0 09F80221#000000000000FFFF
(1638635502.754690) can0 09F80121#0D560224D531460D
(1638635502.781061) can0 09F20021#000000000021FFFF
(1638635502.855119) can0 09F80121#0D560224D531460D
(1638635502.880781) can0 09F20021#000000000021FFFF
(1638635502.954972) can0 09F80121#0D560224D531460D
(1638635502.960110) can0 09F80221#000000000000FFFF
(1638635502.981610) can0 09F20021#000000000021FFFF
(1638635503.054757) can0 09F80121#0D560224D531460D
(1638635503.081577) can0 09F20021#000000000021FFFF
(1638635503.088189) can0 09F20121#A01A0000008C102B
(1638635503.088796) can0 09F20121#A1890A050000E015
(1638635503.089298) can0 09F20121#A2640000000000FF
(1638635503.089913) can0 09F20121#A3000000000000FF
(1638635503.154873) can0 09F80121#0D560224D531460D
(1638635503.181287) can0 09F20021#000000000021FFFF
(1638635503.210201) can0 09F80221#000000000000FFFF
(1638635503.255046) can0 09F80121#0D560224D531460D
(1638635503.281140) can0 09F20021#000000000021FFFF
(1638635503.340828) can0 0CEA2100#16F001
(1638635503.341967) can0 19F01621#2041020102013D01
(1638635503.342464) can0 19F01621#214E4D4541323030
(1638635503.343030) can0 19F01621#2230206C69627261
(1638635503.343491) can0 19F01621#2372792C20687474
(1638635503.344077) can0 19F01621#2470733A2F2F6769
(1638635503.344625) can0 19F01621#25746875622E636F
(1638635503.345101) can0 19F01621#266D2F74746C6170
(1638635503.345711) can0 19F01621#2770616C61696E65
(1638635503.346182) can0 19F01621#286E2F4E4D454132
(1638635503.346858) can0 19F01621#29303030FFFFFFFF
(1638635503.354709) can0 09F80121#0D560224D531460D
(1638635503.376356) can0 0CEA2100#16F001
(1638635503.377357) can0 19F01621#4041020102013D01
(1638635503.377769) can0 19F01621#414E4D4541323030
(1638635503.378454) can0 19F01621#4230206C69627261
(1638635503.378936) can0 19F01621#4372792C20687474
(1638635503.379466) can0 19F01621#4470733A2F2F6769
(1638635503.380109) can0 19F01621#45746875622E636F
(1638635503.380575) can0 19F01621#466D2F74746C6170
(1638635503.381116) can0 19F01621#4770616C61696E65
(1638635503.381658) can0 19F01621#486E2F4E4D454132
(1638635503.382141) can0 19F01621#49303030FFFFFFFF
(1638635503.382836) can0 09F20021#000000000021FFFF
(1638635503.404996) can0 0CEA2100#16F001
(1638635503.406043) can0 19F01621#6041020102013D01
(1638635503.406491) can0 19F01621#614E4D4541323030
(1638635503.407106) can0 19F01621#6230206C69627261
(1638635503.407620) can0 19F01621#6372792C20687474
(1638635503.408216) can0 19F01621#6470733A2F2F6769
(1638635503.408800) can0 19F01621#65746875622E636F
(1638635503.409247) can0 19F01621#666D2F74746C6170
(1638635503.409742) can0 19F01621#6770616C61696E65
(1638635503.410320) can0 19F01621#686E2F4E4D454132
(1638635503.410886) can0 19F01621#69303030FFFFFFFF
(1638635503.435777) can0 0DF01021#0000154AC6258223
(1638635503.444449) can0 0CEA2100#16F001
(1638635503.445427) can0 19F01621#8041020102013D01
(1638635503.445963) can0 19F01621#814E4D4541323030
(1638635503.446552) can0 19F01621#8230206C69627261
(1638635503.447051) can0 19F01621#8372792C20687474
(1638635503.447591) can0 19F01621#8470733A2F2F6769
(1638635503.448071) can0 19F01621#85746875622E636F
(1638635503.448608) can0 19F01621#866D2F74746C6170
(1638635503.449225) can0 19F01621#8770616C61696E65
(1638635503.449731) can0 19F01621#886E2F4E4D454132
(1638635503.450303) can0 19F01621#89303030FFFFFFFF
(1638635503.454536) can0 09F80121#0D560224D531460D
(1638635503.460566) can0 09F80221#000000000000FFFF
(1638635503.467083) can0 0CEA2100#16F001
(1638635503.468113) can0 19F01621#A041020102013D01
(1638635503.468590) can0 19F01621#A14E4D4541323030
(1638635503.469228) can0 19F01621#A230206C69627261
(1638635503.469667) can0 19F01621#A372792C20687474
(1638635503.470263) can0 19F01621#A470733A2F2F6769
(1638635503.470820) can0 19F01621#A5746875622E636F
(1638635503.471325) can0 19F01621#A66D2F74746C6170
(1638635503.471870) can0 19F01621#A770616C61696E65
(1638635503.472399) can0 19F01621#A86E2F4E4D454132
(1638635503.473013) can0 19F01621#A9303030FFFFFFFF
(1638635503.480929) can0 09F20021#000000000021FFFF
(1638635503.483422) can0 0CEA2100#16F001
(1638635503.484360) can0 19F01621#C041020102013D01
(1638635503.484917) can0 19F01621#C14E4D4541323030
(1638635503.485460) can0 19F01621#C230206C69627261
(1638635503.485987) can0 19F01621#C372792C20687474
(1638635503.486535) can0 19F01621#C470733A2F2F6769
(1638635503.487014) can0 19F01621#C5746875622E636F
(1638635503.487604) can0 19F01621#C66D2F74746C6170
(1638635503.488171) can0 19F01621#C770616C61696E65
(1638635503.488709) can0 19F01621#C86E2F4E4D454132
(1638635503.489329) can0 19F01621#C9303030FFFFFFFF
(1638635503.554388) can0 09F80121#0D560224D531460D
(1638635503.581194) can0 09F20021#000000000021FFFF
(1638635503.589186) can0 09F20121#C01A0000008C102B
(1638635503.589734) can0 09F20121#C1890A050000E015
(1638635503.590322) can0 09F20121#C2640000000000FF
(1638635503.590873) can0 09F20121#C3000000000000FF
(1638635503.654663) can0 09F80121#0D560224D531460D
(1638635503.659056) can0 19F21421#000A05CCFFBD6FFF
(1638635503.662267) can0 19F21421#0120034202BD6FFF
(1638635503.681238) can0 09F20021#000000000021FFFF
(1638635503.696143) can0 19F21121#00E204A00F0000FF
(1638635503.701720) can0 19F21121#012F04AC0D0000FF
(1638635503.705715) can0 19F21121#128306B80B0000FF
(1638635503.710657) can0 09F80221#000000000000FFFF
(1638635503.713630) can0 19F21121#13F40188130000FF
(1638635503.755304) can0 09F80121#0D560224D531460D
(1638635503.788582) can0 09F20021#000000000021FFFF
(1638635503.854908) can0 09F80121#0D560224D531460D
(1638635503.881127) can0 09F20021#000000000021FFFF
(1638635503.955480) can0 09F80121#0D560224D531460D
(1638635503.960505) can0 09F80221#000000000000FFFF
(1638635503.981449) can0 09F20021#000000000021FFFF
(1638635504.055212) can0 09F80121#0D560224D531460D
(1638635504.083314) can0 09F20021#000000000021FFFF
(1638635504.089754) can0 09F20121#E01A0000008C102B
(1638635504.090279) can0 09F20121#E1890A050000E015
(1638635504.090870) can0 09F20121#E2640000000000FF
(1638635504.091375) can0 09F20121#E3000000000000FF
(1638635504.154769) can0 09F80121#0D560224D531460D
(1638635504.180982) can0 09F20021#000000000021FFFF
(1638635504.210947) can0 09F80221#000000000000FFFF
(1638635504.255079) can0 09F80121#0D560224D531460D
(1638635504.281311) can0 09F20021#000000000021FFFF
(1638635504.325815) can0 19F01421#808634089A024E4D
(1638635504.326365) can0 19F01421#8145413230303020
(1638635504.326930) can0 19F01421#8273696D756C6174
(1638635504.327454) can0 19F01421#836F722047505300
(1638635504.328061) can0 19F01421#8400000000000000
(1638635504.328620) can0 19F01421#850000312E322E30
(1638635504.329165) can0 19F01421#862E313039000000
(1638635504.329763) can0 19F01421#8700000000000000
(1638635504.330334) can0 19F01421#8800000000000000
(1638635504.330921) can0 19F01421#8900000000000031
(1638635504.331442) can0 19F01421#8A2E322E302E3000
(1638635504.332043) can0 19F01421#8B00000000000000
(1638635504.332596) can0 19F01421#8C00000000000000
(1638635504.333193) can0 19F01421#8D00000000000000
(1638635504.333707) can0 19F01421#8E00000032303937
(1638635504.334256) can0 19F01421#8F31353100000000
(1638635504.334874) can0 19F01421#9000000000000000
(1638635504.335471) can0 19F01421#9100000000000000
(1638635504.336049) can0 19F01421#9200000000000000
(1638635504.336620) can0 19F01421#930101FFFFFFFFFF
(1638635504.337132) can0 18EEFF21#FFFFBFFF009178C0
(1638635504.338981) can0 0CEA2100#14F001
(1638635504.340197) can0 19F01421#A086350864004553
(1638635504.340807) can0 19F01421#A15033324E4D4541
(1638635504.341338) can0 19F01421#A2324BFFFFFFFFFF
(1638635504.341938) can0 19F01421#A3FFFFFFFFFFFFFF
(1638635504.342502) can0 19F01421#A4FFFFFFFFFFFFFF
(1638635504.343052) can0 19F01421#A5FFFF6465763230
(1638635504.343609) can0 19F01421#A6323131323034FF
(1638635504.344188) can0 19F01421#A7FFFFFFFFFFFFFF
(1638635504.344757) can0 19F01421#A8FFFFFFFFFFFFFF
(1638635504.345298) can0 19F01421#A9FFFFFFFFFFFF64
(1638635504.345886) can0 19F01421#AA65763230323131
(1638635504.346424) can0 19F01421#AB323034FFFFFFFF
(1638635504.347012) can0 19F01421#ACFFFFFFFFFFFFFF
(1638635504.347577) can0 19F01421#ADFFFFFFFFFFFFFF
(1638635504.348157) can0 19F01421#AEFFFFFF31FFFFFF
(1638635504.348717) can0 19F01421#AFFFFFFFFFFFFFFF
(1638635504.349261) can0 19F01421#B0FFFFFFFFFFFFFF
(1638635504.349839) can0 19F01421#B1FFFFFFFFFFFFFF
(1638635504.350414) can0 19F01421#B2FFFFFFFFFFFFFF
(1638635504.350985) can0 19F01421#B30003FFFFFFFFFF
(1638635504.351593) can0 19F01421#C08634089A024E4D
(1638635504.352146) can0 19F01421#C145413230303020
(1638635504.352679) can0 19F01421#C273696D756C6174
(1638635504.353165) can0 19F01421#C36F72204C6F6700
(1638635504.353747) can0 19F01421#C400000000000000
(1638635504.354349) can0 19F01421#C50000312E322E30
(1638635504.354906) can0 19F01421#C62E313039000000
(1638635504.355484) can0 19F01421#C700000000000000
(1638635504.356044) can0 19F01421#C800000000000000
(1638635504.356588) can0 19F01421#C900000000000031
(1638635504.357130) can0 19F01421#CA2E322E302E3000
(1638635504.357743) can0 19F01421#CB00000000000000
(1638635504.358340) can0 19F01421#CC00000000000000
(1638635504.358911) can0 19F01421#CD00000000000000
(1638635504.359478) can0 19F01421#CE00000032303937
(1638635504.360031) can0 19F01421#CF31353000000000
(1638635504.360623) can0 19F01421#D000000000000000
(1638635504.361187) can0 19F01421#D100000000000000
(1638635504.361784) can0 19F01421#D200000000000000
(1638635504.362328) can0 19F01421#D30101FFFFFFFFFF
(1638635504.362916) can0 18EEFF21#FEFFBFFF008778C0
(1638635504.364514) can0 0CEA2100#14F001
(1638635504.365436) can0 19F01421#E086350864004553
(1638635504.365973) can0 19F01421#E15033324E4D4541
(1638635504.366518) can0 19F01421#E2324BFFFFFFFFFF
(1638635504.367095) can0 19F01421#E3FFFFFFFFFFFFFF
(1638635504.367669) can0 19F01421#E4FFFFFFFFFFFFFF
(1638635504.368218) can0 19F01421#E5FFFF6465763230
(1638635504.368762) can0 19F01421#E6323131323034FF
(1638635504.369338) can0 19F01421#E7FFFFFFFFFFFFFF
(1638635504.369915) can0 19F01421#E8FFFFFFFFFFFFFF
(1638635504.370492) can0 19F01421#E9FFFFFFFFFFFF64
(1638635504.371027) can0 19F01421#EA65763230323131
(1638635504.371588) can0 19F01421#EB323034FFFFFFFF
(1638635504.372162) can0 19F01421#ECFFFFFFFFFFFFFF
(1638635504.372742) can0 19F01421#EDFFFFFFFFFFFFFF
(1638635504.373316) can0 19F01421#EEFFFFFF31FFFFFF
(1638635504.373899) can0 19F01421#EFFFFFFFFFFFFFFF
(1638635504.374480) can0 19F01421#F0FFFFFFFFFFFFFF
(1638635504.375054) can0 19F01421#F1FFFFFFFFFFFFFF
(1638635504.375635) can0 19F01421#F2FFFFFFFFFFFFFF
(1638635504.376206) can0 19F01421#F30003FFFFFFFFFF
(1638635504.376767) can0 19F01421#008634089A024E4D
(1638635504.377337) can0 19F01421#0145413230303020
(1638635504.377865) can0 19F01421#0273696D756C6174
(1638635504.378412) can0 19F01421#036F722057696E64
(1638635504.378985) can0 19F01421#04206D6574657200
(1638635504.379501) can0 19F01421#050000312E322E30
(1638635504.380060) can0 19F01421#062E313039000000
(1638635504.380642) can0 19F01421#0700000000000000
(1638635504.381231) can0 19F01421#0800000000000000
(1638635504.381807) can0 19F01421#0900000000000031
(1638635504.382360) can0 19F01421#0A2E322E302E3000
(1638635504.382945) can0 19F01421#0B00000000000000
(1638635504.383528) can0 19F01421#0C00000000000000
(1638635504.384111) can0 19F01421#0D00000000000000
(1638635504.384670) can0 19F01421#0E00000032303937
(1638635504.385234) can0 19F01421#0F31343900000000
(1638635504.385816) can0 19F01421#1000000000000000
(1638635504.386404) can0 19F01421#1100000000000000
(1638635504.387017) can0 19F01421#1200000000000000
(1638635504.387591) can0 19F01421#130101FFFFFFFFFF
(1638635504.388120) can0 09F80121#0D560224D531460D
(1638635504.388762) can0 18EEFF21#FDFFBFFF0082AAC0
(1638635504.389284) can0 19F01421#208634089A024E4D
(1638635504.389835) can0 19F01421#2145413230303020
(1638635504.390402) can0 19F01421#2273696D756C6174
(1638635504.390933) can0 19F01421#236F72206F757473
(1638635504.391268) can0 0CEA2100#14F001
(1638635504.391875) can0 19F01421#2469646520656E76
(1638635504.392386) can0 19F01421#256972312E322E30
(1638635504.392905) can0 19F01421#262E313039000000
(1638635504.393482) can0 19F01421#2700000000000000
(1638635504.394119) can0 19F01421#2800000000000000
(1638635504.394669) can0 19F01421#2900000000000031
(1638635504.395226) can0 19F01421#2A2E322E302E3000
(1638635504.395844) can0 19F01421#2B00000000000000
(1638635504.396383) can0 19F01421#2C00000000000000
(1638635504.396962) can0 19F01421#2D00000000000000
(1638635504.397530) can0 19F01421#2E00000032303937
(1638635504.398063) can0 19F01421#2F31343800000000
(1638635504.398678) can0 19F01421#3000000000000000
(1638635504.399258) can0 19F01421#3100000000000000
(1638635504.399842) can0 19F01421#3200000000000000
(1638635504.400423) can0 19F01421#330101FFFFFFFFFF
(1638635504.400968) can0 18EEFF21#FCFFBFFF00A0AAC0
(1638635504.401586) can0 09F20021#000000000021FFFF
(1638635504.402097) can0 19F01421#4086350864004553
(1638635504.402642) can0 19F01421#415033324E4D4541
(1638635504.403282) can0 19F01421#42324BFFFFFFFFFF
(1638635504.403638) can0 0CEA2100#14F001
(1638635504.404165) can0 19F01421#43FFFFFFFFFFFFFF
(1638635504.404745) can0 19F01421#44FFFFFFFFFFFFFF
(1638635504.405302) can0 19F01421#45FFFF6465763230
(1638635504.405864) can0 19F01421#46323131323034FF
(1638635504.406431) can0 19F01421#47FFFFFFFFFFFFFF
(1638635504.406986) can0 19F01421#48FFFFFFFFFFFFFF
(1638635504.407582) can0 19F01421#49FFFFFFFFFFFF64
(1638635504.408115) can0 19F01421#4A65763230323131
(1638635504.408673) can0 19F01421#4B323034FFFFFFFF
(1638635504.409250) can0 19F01421#4CFFFFFFFFFFFFFF
(1638635504.409825) can0 19F01421#4DFFFFFFFFFFFFFF
(1638635504.410402) can0 19F01421#4EFFFFFF31FFFFFF
(1638635504.410982) can0 19F01421#4FFFFFFFFFFFFFFF
(1638635504.411559) can0 19F01421#50FFFFFFFFFFFFFF
(1638635504.412133) can0 19F01421#51FFFFFFFFFFFFFF
(1638635504.412711) can0 19F01421#52FFFFFFFFFFFFFF
(1638635504.413287) can0 19F01421#530003FFFFFFFFFF
(1638635504.413820) can0 19F01421#6086350864004553
(1638635504.414401) can0 19F01421#615033324E4D4541
(1638635504.414990) can0 19F01421#62324BFFFFFFFFFF
(1638635504.415497) can0 19F01421#63FFFFFFFFFFFFFF
(1638635504.416099) can0 19F01421#64FFFFFFFFFFFFFF
(1638635504.416648) can0 19F01421#65FFFF6465763230
(1638635504.417193) can0 19F01421#66323131323034FF
(1638635504.417769) can0 19F01421#67FFFFFFFFFFFFFF
(1638635504.418345) can0 19F01421#68FFFFFFFFFFFFFF
(1638635504.418885) can0 19F01421#69FFFFFFFFFFFF64
(1638635504.419458) can0 19F01421#6A65763230323131
(1638635504.420016) can0 19F01421#6B323034FFFFFFFF
(1638635504.420599) can0 19F01421#6CFFFFFFFFFFFFFF
(1638635504.421174) can0 19F01421#6DFFFFFFFFFFFFFF
(1638635504.421742) can0 19F01421#6EFFFFFF31FFFFFF
(1638635504.422322) can0 19F01421#6FFFFFFFFFFFFFFF
(1638635504.422902) can0 19F01421#70FFFFFFFFFFFFFF
(1638635504.423478) can0 19F01421#71FFFFFFFFFFFFFF
(1638635504.424098) can0 19F01421#72FFFFFFFFFFFFFF
(1638635504.424631) can0 19F01421#730003FFFFFFFFFF
(1638635504.425186) can0 19F01421#808634089A024E4D
(1638635504.425714) can0 19F01421#8145413230303020
(1638635504.426248) can0 19F01421#8273696D756C6174
(1638635504.426813) can0 19F01421#836F7220656E6769
(1638635504.427352) can0 19F01421#846E650000000000
(1638635504.427893) can0 19F01421#850000312E322E30
(1638635504.428447) can0 19F01421#862E313039000000
(1638635504.429048) can0 19F01421#8700000000000000
(1638635504.429607) can0 19F01421#8800000000000000
(1638635504.430180) can0 19F01421#8900000000000031
(1638635504.430753) can0 19F01421#8A2E322E302E3000
(1638635504.431301) can0 19F01421#8B00000000000000
(1638635504.431879) can0 19F01421#8C00000000000000
(1638635504.432453) can0 19F01421#8D00000000000000
(1638635504.433014) can0 19F01421#8E00000032303937
(1638635504.433569) can0 19F01421#8F31343700000000
(1638635504.434152) can0 19F01421#9000000000000000
(1638635504.434760) can0 19F01421#9100000000000000
(1638635504.435341) can0 19F01421#9200000000000000
(1638635504.435912) can0 19F01421#930101FFFFFFFFFF
(1638635504.436436) can0 18EEFF21#FBFFBFFF00A064C0
(1638635504.437035) can0 19F01421#A08634089A024E4D
(1638635504.437812) can0 19F01421#A145413230303020
(1638635504.438201) can0 19F01421#A273696D756C6174
(1638635504.438877) can0 19F01421#A36F7220666C7569
(1638635504.439572) can0 19F01421#A464206C6576656C
(1638635504.439819) can0 19F01421#A50000312E322E30
(1638635504.440247) can0 0CEA2100#14F001
(1638635504.440768) can0 19F01421#A62E313039000000
(1638635504.441340) can0 19F01421#A700000000000000
(1638635504.441999) can0 19F01421#A800000000000000
(1638635504.442617) can0 19F01421#A900000000000031
(1638635504.443036) can0 19F01421#AA2E322E302E3000
(1638635504.443685) can0 19F01421#AB00000000000000
(1638635504.444281) can0 19F01421#AC00000000000000
(1638635504.444769) can0 19F01421#AD00000000000000
(1638635504.445560) can0 19F01421#AE00000032303937
(1638635504.445890) can0 19F01421#AF31343600000000
(1638635504.446480) can0 19F01421#B000000000000000
(1638635504.447088) can0 19F01421#B100000000000000
(1638635504.447650) can0 19F01421#B200000000000000
(1638635504.448205) can0 19F01421#B30101FFFFFFFFFF
(1638635504.448776) can0 18EEFF21#FAFFBFFF009696C0
(1638635504.449313) can0 0DF01021#0000154A9E4D8223
(1638635504.449930) can0 19F01421#C086350864004553
(1638635504.450428) can0 19F01421#C15033324E4D4541
(1638635504.450992) can0 19F01421#C2324BFFFFFFFFFF
(1638635504.451631) can0 19F01421#C3FFFFFFFFFFFFFF
(1638635504.452162) can0 19F01421#C4FFFFFFFFFFFFFF
(1638635504.452926) can0 19F01421#C5FFFF6465763230
(1638635504.453227) can0 19F01421#C6323131323034FF
(1638635504.453841) can0 19F01421#C7FFFFFFFFFFFFFF
(1638635504.454462) can0 19F01421#C8FFFFFFFFFFFFFF
(1638635504.454959) can0 19F01421#C9FFFFFFFFFFFF64
(1638635504.455570) can0 19F01421#CA65763230323131
(1638635504.456060) can0 19F01421#CB323034FFFFFFFF
(1638635504.456642) can0 19F01421#CCFFFFFFFFFFFFFF
(1638635504.457221) can0 19F01421#CDFFFFFFFFFFFFFF
(1638635504.457860) can0 19F01421#CEFFFFFF31FFFFFF
(1638635504.458376) can0 19F01421#CFFFFFFFFFFFFFFF
(1638635504.459022) can0 19F01421#D0FFFFFFFFFFFFFF
(1638635504.459599) can0 19F01421#D1FFFFFFFFFFFFFF
(1638635504.460102) can0 19F01421#D2FFFFFFFFFFFFFF
(1638635504.460768) can0 19F01421#D30003FFFFFFFFFF
(1638635504.461242) can0 09F80121#0D560224D531460D
(1638635504.461823) can0 09F80221#000000000000FFFF
(1638635504.464453) can0 0CEA2100#14F001
(1638635504.465412) can0 19F01421#E086350864004553
(1638635504.465864) can0 19F01421#E15033324E4D4541
(1638635504.466505) can0 19F01421#E2324BFFFFFFFFFF
(1638635504.467102) can0 19F01421#E3FFFFFFFFFFFFFF
(1638635504.467671) can0 19F01421#E4FFFFFFFFFFFFFF
(1638635504.468145) can0 19F01421#E5FFFF6465763230
(1638635504.468825) can0 19F01421#E6323131323034FF
(1638635504.469284) can0 19F01421#E7FFFFFFFFFFFFFF
(1638635504.469875) can0 19F01421#E8FFFFFFFFFFFFFF
(1638635504.470494) can0 19F01421#E9FFFFFFFFFFFF64
(1638635504.471023) can0 19F01421#EA65763230323131
(1638635504.471585) can0 19F01421#EB323034FFFFFFFF
(1638635504.472220) can0 19F01421#ECFFFFFFFFFFFFFF
(1638635504.472743) can0 19F01421#EDFFFFFFFFFFFFFF
(1638635504.473311) can0 19F01421#EEFFFFFF31FFFFFF
(1638635504.473949) can0 19F01421#EFFFFFFFFFFFFFFF
(1638635504.474403) can0 19F01421#F0FFFFFFFFFFFFFF
(1638635504.475054) can0 19F01421#F1FFFFFFFFFFFFFF
(1638635504.475685) can0 19F01421#F2FFFFFFFFFFFFFF
(1638635504.476127) can0 19F01421#F30003FFFFFFFFFF
(1638635504.481726) can0 09F20021#000000000021FFFF
(1638635504.544688) can0 15FD0821#0000008F70FFFFFF
(1638635504.551360) can0 15FD0821#00010455735573FF
(1638635504.555185) can0 09F80121#0D560224D531460D
(1638635504.558615) can0 19FD0921#00010078370429FF
(1638635504.561770) can0 15FD0A21#00000008750F00FF
(1638635504.581179) can0 09F20021#000000000021FFFF
(1638635504.588620) can0 09F20121#001A0000008C102B
(1638635504.589211) can0 09F20121#01890A050000E015
(1638635504.589896) can0 09F20121#02640000000000FF
(1638635504.590379) can0 09F20121#03000000000000FF
(1638635504.655325) can0 09F80121#0D560224D531460D
(1638635504.681013) can0 09F20021#000000000021FFFF
(1638635504.710703) can0 09F80221#000000000000FFFF
(1638635504.755094) can0 09F80121#0D560224D531460D
(1638635504.781197) can0 09F20021#000000000021FFFF
(1638635504.854785) can0 09F80121#0D560224D531460D
(1638635504.881159) can0 09F20021#000000000021FFFF
(1638635504.957104) can0 09F80121#0D560224D531460D
(1638635504.967093) can0 09F80221#000000000000FFFF
(1638635504.981454) can0 09F20021#000000000021FFFF
(1638635505.054993) can0 09F80121#0D560224D531460D
(1638635505.081206) can0 09F20021#000000000021FFFF
(1638635505.088217) can0 09F20121#201A0000008C102B
(1638635505.088743) can0 09F20121#21890A050000E015
(1638635505.089238) can0 09F20121#22640000000000FF
(1638635505.089932) can0 09F20121#23000000000000FF
(1638635505.154977) can0 09F80121#0D560224D531460D
(1638635505.159496) can0 19F21421#000A05CCFFBD6FFF
(1638635505.162545) can0 19F21421#0120034202BD6FFF
(1638635505.181583) can0 09F20021#000000000021FFFF
(1638635505.210908) can0 09F80221#000000000000FFFF
(1638635505.254681) can0 09F80121#0D560224D531460D
(1638635505.280943) can0 09F20021#000000000021FFFF
(1638635505.340259) can0 0CEA2100#16F001
(1638635505.341384) can0 19F01621#E041020102013D01
(1638635505.341832) can0 19F01621#E14E4D4541323030
(1638635505.342545) can0 19F01621#E230206C69627261
(1638635505.342915) can0 19F01621#E372792C20687474
(1638635505.343451) can0 19F01621#E470733A2F2F6769
(1638635505.344101) can0 19F01621#E5746875622E636F
(1638635505.344667) can0 19F01621#E66D2F74746C6170
(1638635505.345206) can0 19F01621#E770616C61696E65
(1638635505.345606) can0 19F01621#E86E2F4E4D454132
(1638635505.346220) can0 19F01621#E9303030FFFFFFFF
(1638635505.354939) can0 09F80121#0D560224D531460D
(1638635505.367387) can0 0CEA2100#16F001
(1638635505.368308) can0 19F01621#0041020102013D01
(1638635505.368795) can0 19F01621#014E4D4541323030
(1638635505.369341) can0 19F01621#0230206C69627261
(1638635505.369884) can0 19F01621#0372792C20687474
(1638635505.370428) can0 19F01621#0470733A2F2F6769
(1638635505.370898) can0 19F01621#05746875622E636F
(1638635505.371576) can0 19F01621#066D2F74746C6170
(1638635505.372056) can0 19F01621#0770616C61696E65
(1638635505.372591) can0 19F01621#086E2F4E4D454132
(1638635505.373162) can0 19F01621#09303030FFFFFFFF
(1638635505.381854) can0 09F20021#000000000021FFFF
(1638635505.395962) can0 0CEA2100#16F001
(1638635505.396868) can0 19F01621#2041020102013D01
(1638635505.397342) can0 19F01621#214E4D4541323030
(1638635505.397969) can0 19F01621#2230206C69627261
(1638635505.398625) can0 19F01621#2372792C20687474
(1638635505.399134) can0 19F01621#2470733A2F2F6769
(1638635505.399582) can0 19F01621#25746875622E636F
(1638635505.400190) can0 19F01621#266D2F74746C6170
(1638635505.400647) can0 19F01621#2770616C61696E65
(1638635505.401191) can0 19F01621#286E2F4E4D454132
(1638635505.401776) can0 19F01621#29303030FFFFFFFF
(1638635505.412271) can0 0CEA2100#16F001
(1638635505.413391) can0 19F01621#4041020102013D01
(1638635505.413924) can0 19F01621#414E4D4541323030
(1638635505.414479) can0 19F01621#4230206C69627261
(1638635505.415030) can0 19F01621#4372792C20687474
(1638635505.415482) can0 19F01621#4470733A2F2F6769
(1638635505.416145) can0 19F01621#45746875622E636F
(1638635505.416618) can0 19F01621#466D2F74746C6170
(1638635505.417161) can0 19F01621#4770616C61696E65
(1638635505.417746) can0 19F01621#486E2F4E4D454132
(1638635505.418286) can0 19F01621#49303030FFFFFFFF
(1638635505.435470) can0 0CEA2100#16F001
(1638635505.436041) can0 0DF01021#0000154AA2718223
(1638635505.436552) can0 19F01621#6041020102013D01
(1638635505.437143) can0 19F01621#614E4D4541323030
(1638635505.437685) can0 19F01621#6230206C69627261
(1638635505.438218) can0 19F01621#6372792C20687474
(1638635505.438692) can0 19F01621#6470733A2F2F6769
(1638635505.439243) can0 19F01621#65746875622E636F
(1638635505.439770) can0 19F01621#666D2F74746C6170
(1638635505.440302) can0 19F01621#6770616C61696E65
(1638635505.440912) can0 19F01621#686E2F4E4D454132
(1638635505.441482) can0 19F01621#69303030FFFFFFFF
(1638635505.454653) can0 09F80121#0D560224D531460D
(1638635505.457854) can0 0CEA2100#16F001
(1638635505.458668) can0 19F01621#8041020102013D01
(1638635505.459102) can0 19F01621#814E4D4541323030
(1638635505.459679) can0 19F01621#8230206C69627261
(1638635505.460254) can0 19F01621#8372792C20687474
(1638635505.460868) can0 19F01621#8470733A2F2F6769
(1638635505.461261) can0 19F01621#85746875622E636F
(1638635505.461950) can0 19F01621#866D2F74746C6170
(1638635505.462342) can0 19F01621#8770616C61696E65
(1638635505.462884) can0 19F01621#886E2F4E4D454132
(1638635505.463541) can0 19F01621#89303030FFFFFFFF
(1638635505.464087) can0 09F80221#000000000000FFFF
(1638635505.480956) can0 09F20021#000000000021FFFF
(1638635505.562316) can0 09F80121#0D560224D531460D
(1638635505.581725) can0 09F20021#000000000021FFFF
(1638635505.589170) can0 09F20121#401A0000008C102B
(1638635505.589706) can0 09F20121#41890A050000E015
(1638635505.590274) can0 09F20121#42640000000000FF
(1638635505.590899) can0 09F20121#43000000000000FF
(1638635505.655029) can0 09F80121#0D560224D531460D
(1638635505.681731) can0 09F20021#000000000021FFFF
(1638635505.710529) can0 09F80221#000000000000FFFF
(1638635505.755059) can0 09F80121#0D560224D531460D
(1638635505.781456) can0 09F20021#000000000021FFFF
(1638635505.856035) can0 09F80121#0D560224D531460D
(1638635505.881702) can0 09F20021#000000000021FFFF
(1638635505.954961) can0 09F80121#0D560224D531460D
(1638635505.961107) can0 09F80221#000000000000FFFF
(1638635505.980906) can0 09F20021#000000000021FFFF
(1638635506.054920) can0 09F80121#0D560224D531460D
(1638635506.081298) can0 09F20021#000000000021FFFF
(1638635506.088978) can0 09F20121#601A0000008C102B
(1638635506.089503) can0 09F20121#61890A050000E015
(1638635506.090005) can0 09F20121#62640000000000FF
(1638635506.090579) can0 09F20121#63000000000000FF
(1638635506.155185) can0 09F80121#0D560224D531460D
(1638635506.181905) can0 09F20021#000000000021FFFF
(1638635506.196526) can0 19F21121#00E204A00F0000FF
(1638635506.200927) can0 19F21121#012F04AC0D0000FF
(1638635506.206097) can0 19F21121#128306B80B0000FF
(1638635506.210761) can0 09F80221#000000000000FFFF
(1638635506.213608) can0 19F21121#13F40188130000FF
(1638635506.255415) can0 09F80121#0D560224D531460D
(1638635506.281053) can0 09F20021#000000000021FFFF
(1638635506.325975) can0 19F01421#008634089A024E4D
(1638635506.326450) can0 19F01421#0145413230303020
(1638635506.327053) can0 19F01421#0273696D756C6174
(1638635506.327609) can0 19F01421#036F722047505300
(1638635506.328118) can0 19F01421#0400000000000000
(1638635506.328789) can0 19F01421#050000312E322E30
(1638635506.329304) can0 19F01421#062E313039000000
(1638635506.329877) can0 19F01421#0700000000000000
(1638635506.330491) can0 19F01421#0800000000000000
(1638635506.331048) can0 19F01421#0900000000000031
(1638635506.331599) can0 19F01421#0A2E322E302E3000
(1638635506.332115) can0 19F01421#0B00000000000000
(1638635506.332699) can0 19F01421#0C00000000000000
(1638635506.333449) can0 19F01421#0D00000000000000
(1638635506.334011) can0 19F01421#0E00000032303937
(1638635506.334430) can0 19F01421#0F31353100000000
(1638635506.335082) can0 19F01421#1000000000000000
(1638635506.335827) can0 19F01421#1100000000000000
(1638635506.336261) can0 19F01421#1200000000000000
(1638635506.336751) can0 19F01421#130101FFFFFFFFFF
(1638635506.337312) can0 18EEFF21#FFFFBFFF009178C0
(1638635506.341924) can0 0CEA2100#14F001
(1638635506.343201) can0 19F01421#2086350864004553
(1638635506.343696) can0 19F01421#215033324E4D4541
(1638635506.344277) can0 19F01421#22324BFFFFFFFFFF
(1638635506.344859) can0 19F01421#23FFFFFFFFFFFFFF
(1638635506.345608) can0 19F01421#24FFFFFFFFFFFFFF
(1638635506.346058) can0 19F01421#25FFFF6465763230
(1638635506.346542) can0 19F01421#26323131323034FF
(1638635506.347115) can0 19F01421#27FFFFFFFFFFFFFF
(1638635506.347721) can0 19F01421#28FFFFFFFFFFFFFF
(1638635506.348301) can0 19F01421#29FFFFFFFFFFFF64
(1638635506.348811) can0 19F01421#2A65763230323131
(1638635506.349431) can0 19F01421#2B323034FFFFFFFF
(1638635506.350056) can0 19F01421#2CFFFFFFFFFFFFFF
(1638635506.350606) can0 19F01421#2DFFFFFFFFFFFFFF
(1638635506.351117) can0 19F01421#2EFFFFFF31FFFFFF
(1638635506.351788) can0 19F01421#2FFFFFFFFFFFFFFF
(1638635506.352334) can0 19F01421#30FFFFFFFFFFFFFF
(1638635506.352866) can0 19F01421#31FFFFFFFFFFFFFF
(1638635506.353528) can0 19F01421#32FFFFFFFFFFFFFF
(1638635506.354147) can0 19F01421#330003FFFFFFFFFF
(1638635506.354715) can0 19F01421#408634089A024E4D
(1638635506.355169) can0 19F01421#4145413230303020
(1638635506.355636) can0 19F01421#4273696D756C6174
(1638635506.356353) can0 19F01421#436F72204C6F6700
(1638635506.356895) can0 19F01421#4400000000000000
(1638635506.357426) can0 19F01421#450000312E322E30
(1638635506.357987) can0 19F01421#462E313039000000
(1638635506.358577) can0 19F01421#4700000000000000
(1638635506.359145) can0 19F01421#4800000000000000
(1638635506.359720) can0 19F01421#4900000000000031
(1638635506.360170) can0 19F01421#4A2E322E302E3000
(1638635506.360838) can0 19F01421#4B00000000000000
(1638635506.361330) can0 19F01421#4C00000000000000
(1638635506.362048) can0 19F01421#4D00000000000000
(1638635506.362544) can0 19F01421#4E00000032303937
(1638635506.363060) can0 19F01421#4F31353000000000
(1638635506.363778) can0 19F01421#5000000000000000
(1638635506.364292) can0 19F01421#5100000000000000
(1638635506.364782) can0 19F01421#5200000000000000
(1638635506.365343) can0 19F01421#530101FFFFFFFFFF
(1638635506.365904) can0 18EEFF21#FEFFBFFF008778C0
(1638635506.366446) can0 19F01421#608634089A024E4D
(1638635506.367059) can0 19F01421#6145413230303020
(1638635506.367543) can0 19F01421#6273696D756C6174
(1638635506.368140) can0 19F01421#636F722057696E64
(1638635506.368715) can0 19F01421#64206D6574657200
(1638635506.369181) can0 19F01421#650000312E322E30
(1638635506.369799) can0 19F01421#662E313039000000
(1638635506.370420) can0 19F01421#6700000000000000
(1638635506.370936) can0 19F01421#6800000000000000
(1638635506.371469) can0 19F01421#6900000000000031
(1638635506.372090) can0 19F01421#6A2E322E302E3000
(1638635506.372612) can0 19F01421#6B00000000000000
(1638635506.373227) can0 19F01421#6C00000000000000
(1638635506.373887) can0 19F01421#6D00000000000000
(1638635506.374260) can0 19F01421#6E00000032303937
(1638635506.374930) can0 19F01421#6F31343900000000
(1638635506.375555) can0 19F01421#7000000000000000
(1638635506.376187) can0 19F01421#7100000000000000
(1638635506.376679) can0 19F01421#7200000000000000
(1638635506.377286) can0 19F01421#730101FFFFFFFFFF
(1638635506.377742) can0 09F80121#0D560224D531460D
(1638635506.378305) can0 18EEFF21#FDFFBFFF0082AAC0
(1638635506.382580) can0 0CEA2100#14F001
(1638635506.383571) can0 19F01421#8086350864004553
(1638635506.384053) can0 19F01421#815033324E4D4541
(1638635506.384524) can0 19F01421#82324BFFFFFFFFFF
(1638635506.385255) can0 19F01421#83FFFFFFFFFFFFFF
(1638635506.385706) can0 19F01421#84FFFFFFFFFFFFFF
(1638635506.386290) can0 19F01421#85FFFF6465763230
(1638635506.386796) can0 19F01421#86323131323034FF
(1638635506.387411) can0 19F01421#87FFFFFFFFFFFFFF
(1638635506.387964) can0 19F01421#88FFFFFFFFFFFFFF
(1638635506.388606) can0 19F01421#89FFFFFFFFFFFF64
(1638635506.389103) can0 19F01421#8A65763230323131
(1638635506.389598) can0 19F01421#8B323034FFFFFFFF
(1638635506.390218) can0 19F01421#8CFFFFFFFFFFFFFF
(1638635506.390879) can0 19F01421#8DFFFFFFFFFFFFFF
(1638635506.391366) can0 19F01421#8EFFFFFF31FFFFFF
(1638635506.391963) can0 19F01421#8FFFFFFFFFFFFFFF
(1638635506.392623) can0 19F01421#90FFFFFFFFFFFFFF
(1638635506.393135) can0 19F01421#91FFFFFFFFFFFFFF
(1638635506.393695) can0 19F01421#92FFFFFFFFFFFFFF
(1638635506.394222) can0 19F01421#930003FFFFFFFFFF
(1638635506.394807) can0 19F01421#A08634089A024E4D
(1638635506.395325) can0 19F01421#A145413230303020
(1638635506.395853) can0 19F01421#A273696D756C6174
(1638635506.396436) can0 19F01421#A36F72206F757473
(1638635506.396923) can0 19F01421#A469646520656E76
(1638635506.397555) can0 19F01421#A56972312E322E30
(1638635506.398085) can0 19F01421#A62E313039000000
(1638635506.398614) can0 19F01421#A700000000000000
(1638635506.399167) can0 19F01421#A800000000000000
(1638635506.399713) can0 19F01421#A900000000000031
(1638635506.400349) can0 19F01421#AA2E322E302E3000
(1638635506.400942) can0 19F01421#AB00000000000000
(1638635506.401444) can0 19F01421#AC00000000000000
(1638635506.402012) can0 19F01421#AD00000000000000
(1638635506.402662) can0 19F01421#AE00000032303937
(1638635506.402935) can0 0CEA2100#14F001
(1638635506.403598) can0 19F01421#AF31343800000000
(1638635506.404160) can0 19F01421#B000000000000000
(1638635506.404736) can0 19F01421#B100000000000000
(1638635506.405310) can0 19F01421#B200000000000000
(1638635506.405949) can0 19F01421#B30101FFFFFFFFFF
(1638635506.406458) can0 18EEFF21#FCFFBFFF00A0AAC0
(1638635506.407109) can0 09F20021#000000000021FFFF
(1638635506.407588) can0 19F01421#C086350864004553
(1638635506.408120) can0 19F01421#C15033324E4D4541
(1638635506.408650) can0 19F01421#C2324BFFFFFFFFFF
(1638635506.409385) can0 19F01421#C3FFFFFFFFFFFFFF
(1638635506.409876) can0 19F01421#C4FFFFFFFFFFFFFF
(1638635506.410402) can0 19F01421#C5FFFF6465763230
(1638635506.410952) can0 19F01421#C6323131323034FF
(1638635506.411586) can0 19F01421#C7FFFFFFFFFFFFFF
(1638635506.412133) can0 19F01421#C8FFFFFFFFFFFFFF
(1638635506.412689) can0 19F01421#C9FFFFFFFFFFFF64
(1638635506.413135) can0 19F01421#CA65763230323131
(1638635506.413888) can0 19F01421#CB323034FFFFFFFF
(1638635506.414350) can0 19F01421#CCFFFFFFFFFFFFFF
(1638635506.414896) can0 19F01421#CDFFFFFFFFFFFFFF
(1638635506.415578) can0 19F01421#CEFFFFFF31FFFFFF
(1638635506.416041) can0 19F01421#CFFFFFFFFFFFFFFF
(1638635506.416742) can0 19F01421#D0FFFFFFFFFFFFFF
(1638635506.417178) can0 19F01421#D1FFFFFFFFFFFFFF
(1638635506.418000) can0 19F01421#D2FFFFFFFFFFFFFF
(1638635506.418464) can0 19F01421#D30003FFFFFFFFFF
(1638635506.418962) can0 19F01421#E08634089A024E4D
(1638635506.419561) can0 19F01421#E145413230303020
(1638635506.419849) can0 0CEA2100#14F001
(1638635506.420403) can0 19F01421#E273696D756C6174
(1638635506.421010) can0 19F01421#E36F7220656E6769
(1638635506.421520) can0 19F01421#E46E650000000000
(1638635506.422082) can0 19F01421#E50000312E322E30
(1638635506.422567) can0 19F01421#E62E313039000000
(1638635506.423155) can0 19F01421#E700000000000000
(1638635506.423697) can0 19F01421#E800000000000000
(1638635506.424426) can0 19F01421#E900000000000031
(1638635506.424807) can0 19F01421#EA2E322E302E3000
(1638635506.425563) can0 19F01421#EB00000000000000
(1638635506.426074) can0 19F01421#EC00000000000000
(1638635506.426628) can0 19F01421#ED00000000000000
(1638635506.427183) can0 19F01421#EE00000032303937
(1638635506.427706) can0 19F01421#EF31343700000000
(1638635506.428414) can0 19F01421#F000000000000000
(1638635506.428842) can0 19F01421#F100000000000000
(1638635506.429520) can0 19F01421#F200000000000000
(1638635506.430060) can0 19F01421#F30101FFFFFFFFFF
(1638635506.430637) can0 18EEFF21#FBFFBFFF00A064C0
(1638635506.431241) can0 19F01421#0086350864004553
(1638635506.431719) can0 19F01421#015033324E4D4541
(1638635506.432229) can0 19F01421#02324BFFFFFFFFFF
(1638635506.432878) can0 19F01421#03FFFFFFFFFFFFFF
(1638635506.433455) can0 19F01421#04FFFFFFFFFFFFFF
(1638635506.434090) can0 19F01421#05FFFF6465763230
(1638635506.434304) can0 0CEA2100#14F001
(1638635506.434935) can0 19F01421#06323131323034FF
(1638635506.435448) can0 19F01421#07FFFFFFFFFFFFFF
(1638635506.436103) can0 19F01421#08FFFFFFFFFFFFFF
(1638635506.436602) can0 19F01421#09FFFFFFFFFFFF64
(1638635506.437205) can0 19F01421#0A65763230323131
(1638635506.437710) can0 19F01421#0B323034FFFFFFFF
(1638635506.438355) can0 19F01421#0CFFFFFFFFFFFFFF
(1638635506.438944) can0 19F01421#0DFFFFFFFFFFFFFF
(1638635506.439447) can0 19F01421#0EFFFFFF31FFFFFF
(1638635506.440092) can0 19F01421#0FFFFFFFFFFFFFFF
(1638635506.440670) can0 19F01421#10FFFFFFFFFFFFFF
(1638635506.441255) can0 19F01421#11FFFFFFFFFFFFFF
(1638635506.441768) can0 19F01421#12FFFFFFFFFFFFFF
(1638635506.442413) can0 19F01421#130003FFFFFFFFFF
(1638635506.442903) can0 19F01421#208634089A024E4D
(1638635506.443532) can0 19F01421#2145413230303020
(1638635506.444200) can0 19F01421#2273696D756C6174
(1638635506.444604) can0 19F01421#236F7220666C7569
(1638635506.445217) can0 19F01421#2464206C6576656C
(1638635506.445622) can0 19F01421#250000312E322E30
(1638635506.446319) can0 19F01421#262E313039000000
(1638635506.446895) can0 19F01421#2700000000000000
(1638635506.447484) can0 19F01421#2800000000000000
(1638635506.448004) can0 19F01421#2900000000000031
(1638635506.448649) can0 19F01421#2A2E322E302E3000
(1638635506.449154) can0 19F01421#2B00000000000000
(1638635506.449792) can0 19F01421#2C00000000000000
(1638635506.450338) can0 19F01421#2D00000000000000
(1638635506.450868) can0 19F01421#2E00000032303937
(1638635506.451435) can0 19F01421#2F31343600000000
(1638635506.451996) can0 19F01421#3000000000000000
(1638635506.452662) can0 19F01421#3100000000000000
(1638635506.453148) can0 19F01421#3200000000000000
(1638635506.453850) can0 19F01421#330101FFFFFFFFFF
(1638635506.454321) can0 18EEFF21#FAFFBFFF009696C0
(1638635506.454966) can0 0DF01021#0000154AB6998223
(1638635506.455447) can0 19F01421#4086350864004553
(1638635506.455976) can0 19F01421#415033324E4D4541
(1638635506.456479) can0 19F01421#42324BFFFFFFFFFF
(1638635506.457121) can0 19F01421#43FFFFFFFFFFFFFF
(1638635506.457634) can0 19F01421#44FFFFFFFFFFFFFF
(1638635506.458233) can0 19F01421#45FFFF6465763230
(1638635506.458710) can0 19F01421#46323131323034FF
(1638635506.459126) can0 0CEA2100#14F001
(1638635506.459730) can0 19F01421#47FFFFFFFFFFFFFF
(1638635506.460312) can0 19F01421#48FFFFFFFFFFFFFF
(1638635506.460814) can0 19F01421#49FFFFFFFFFFFF64
(1638635506.461441) can0 19F01421#4A65763230323131
(1638635506.462008) can0 19F01421#4B323034FFFFFFFF
(1638635506.462491) can0 19F01421#4CFFFFFFFFFFFFFF
(1638635506.463169) can0 19F01421#4DFFFFFFFFFFFFFF
(1638635506.463593) can0 19F01421#4EFFFFFF31FFFFFF
(1638635506.464369) can0 19F01421#4FFFFFFFFFFFFFFF
(1638635506.464900) can0 19F01421#50FFFFFFFFFFFFFF
(1638635506.465532) can0 19F01421#51FFFFFFFFFFFFFF
(1638635506.465987) can0 19F01421#52FFFFFFFFFFFFFF
(1638635506.466666) can0 19F01421#530003FFFFFFFFFF
(1638635506.467069) can0 09F80121#0D560224D531460D
(1638635506.467670) can0 09F80221#000000000000FFFF
(1638635506.468214) can0 19F01421#6086350864004553
(1638635506.468758) can0 19F01421#615033324E4D4541
(1638635506.469500) can0 19F01421#62324BFFFFFFFFFF
(1638635506.469889) can0 19F01421#63FFFFFFFFFFFFFF
(1638635506.470500) can0 19F01421#64FFFFFFFFFFFFFF
(1638635506.471147) can0 19F01421#65FFFF6465763230
(1638635506.471562) can0 19F01421#66323131323034FF
(1638635506.472144) can0 19F01421#67FFFFFFFFFFFFFF
(1638635506.472810) can0 19F01421#68FFFFFFFFFFFFFF
(1638635506.473304) can0 19F01421#69FFFFFFFFFFFF64
(1638635506.473836) can0 19F01421#6A65763230323131
(1638635506.474411) can0 19F01421#6B323034FFFFFFFF
(1638635506.475047) can0 19F01421#6CFFFFFFFFFFFFFF
(1638635506.475713) can0 19F01421#6DFFFFFFFFFFFFFF
(1638635506.476110) can0 19F01421#6EFFFFFF31FFFFFF
(1638635506.476771) can0 19F01421#6FFFFFFFFFFFFFFF
(1638635506.477296) can0 19F01421#70FFFFFFFFFFFFFF
(1638635506.477942) can0 19F01421#71FFFFFFFFFFFFFF
(1638635506.478593) can0 19F01421#72FFFFFFFFFFFFFF
(1638635506.479110) can0 19F01421#730003FFFFFFFFFF
(1638635506.487899) can0 09F20021#000000000021FFFF
(1638635506.545147) can0 15FD0821#0000008F70FFFFFF
(1638635506.551796) can0 15FD0821#00010455735573FF
(1638635506.554820) can0 09F80121#0D560224D531460D
(1638635506.558117) can0 19FD0921#00010078370429FF
(1638635506.561281) can0 15FD0A21#00000008750F00FF
(1638635506.581307) can0 09F20021#000000000021FFFF
(1638635506.588748) can0 09F20121#801A0000008C102B
(1638635506.589312) can0 09F20121#81890A050000E015
(1638635506.589788) can0 09F20121#82640000000000FF
(1638635506.590398) can0 09F20121#83000000000000FF
(1638635506.654728) can0 09F80121#0D560224D531460D
(1638635506.658747) can0 19F21421#000A05CCFFBD6FFF
(1638635506.661758) can0 19F21421#0120034202BD6FFF
(1638635506.681099) can0 09F20021#000000000021FFFF
(1638635506.710684) can0 09F80221#000000000000FFFF
(1638635506.754636) can0 09F80121#0D560224D531460D
(1638635506.781269) can0 09F20021#000000000021FFFF
(1638635506.855441) can0 09F80121#0D560224D531460D
(1638635506.881060) can0 09F20021#000000000021FFFF
(1638635506.955194) can0 09F80121#0D560224D531460D
(1638635506.960098) can0 09F80221#000000000000FFFF
(1638635506.981441) can0 09F20021#000000000021FFFF
(1638635507.055124) can0 09F80121#0D560224D531460D
(1638635507.080660) can0 09F20021#000000000021FFFF
(1638635507.088631) can0 09F20121#A01A0000008C102B
(1638635507.089191) can0 09F20121#A1890A050000E015
(1638635507.089709) can0 09F20121#A2640000000000FF
(1638635507.090280) can0 09F20121#A3000000000000FF
(1638635507.154902) can0 09F80121#0D560224D531460D
(1638635507.181676) can0 09F20021#000000000021FFFF
(1638635507.210440) can0 09F80221#000000000000FFFF
(1638635507.255140) can0 09F80121#0D560224D531460D
(1638635507.280943) can0 09F20021#000000000021FFFF
(1638635507.339680) can0 0CEA2100#16F001
(1638635507.341033) can0 19F01621#A041020102013D01
(1638635507.341529) can0 19F01621#A14E4D4541323030
(1638635507.342187) can0 19F01621#A230206C69627261
(1638635507.342547) can0 19F01621#A372792C20687474
(1638635507.343225) can0 19F01621#A470733A2F2F6769
(1638635507.343691) can0 19F01621#A5746875622E636F
(1638635507.344181) can0 19F01621#A66D2F74746C6170
(1638635507.344810) can0 19F01621#A770616C61696E65
(1638635507.345380) can0 19F01621#A86E2F4E4D454132
(1638635507.345865) can0 19F01621#A9303030FFFFFFFF
(1638635507.355226) can0 09F80121#0D560224D531460D
(1638635507.367054) can0 0CEA2100#16F001
(1638635507.368054) can0 19F01621#C041020102013D01
(1638635507.368549) can0 19F01621#C14E4D4541323030
(1638635507.369093) can0 19F01621#C230206C69627261
(1638635507.369643) can0 19F01621#C372792C20687474
(1638635507.370238) can0 19F01621#C470733A2F2F6769
(1638635507.370732) can0 19F01621#C5746875622E636F
(1638635507.371182) can0 19F01621#C66D2F74746C6170
(1638635507.371779) can0 19F01621#C770616C61696E65
(1638635507.372315) can0 19F01621#C86E2F4E4D454132
(1638635507.372898) can0 19F01621#C9303030FFFFFFFF
(1638635507.381290) can0 09F20021#000000000021FFFF
(1638635507.392136) can0 0CEA2100#16F001
(1638635507.393111) can0 19F01621#E041020102013D01
(1638635507.393715) can0 19F01621#E14E4D4541323030
(1638635507.394156) can0 19F01621#E230206C69627261
(1638635507.394729) can0 19F01621#E372792C20687474
(1638635507.395212) can0 19F01621#E470733A2F2F6769
(1638635507.395836) can0 19F01621#E5746875622E636F
(1638635507.396344) can0 19F01621#E66D2F74746C6170
(1638635507.396879) can0 19F01621#E770616C61696E65
(1638635507.397433) can0 19F01621#E86E2F4E4D454132
(1638635507.397997) can0 19F01621#E9303030FFFFFFFF
(1638635507.403140) can0 0CEA2100#16F001
(1638635507.404088) can0 19F01621#0041020102013D01
(1638635507.404591) can0 19F01621#014E4D4541323030
(1638635507.405112) can0 19F01621#0230206C69627261
(1638635507.405608) can0 19F01621#0372792C20687474
(1638635507.406247) can0 19F01621#0470733A2F2F6769
(1638635507.406768) can0 19F01621#05746875622E636F
(1638635507.407261) can0 19F01621#066D2F74746C6170
(1638635507.407752) can0 19F01621#0770616C61696E65
(1638635507.408349) can0 19F01621#086E2F4E4D454132
(1638635507.408932) can0 19F01621#09303030FFFFFFFF
(1638635507.435807) can0 0DF01021#0000154AB6C18223
(1638635507.440869) can0 0CEA2100#16F001
(1638635507.441890) can0 19F01621#2041020102013D01
(1638635507.442277) can0 19F01621#214E4D4541323030
(1638635507.442882) can0 19F01621#2230206C69627261
(1638635507.443380) can0 19F01621#2372792C20687474
(1638635507.443958) can0 19F01621#2470733A2F2F6769
(1638635507.444497) can0 19F01621#25746875622E636F
(1638635507.445024) can0 19F01621#266D2F74746C6170
(1638635507.445566) can0 19F01621#2770616C61696E65
(1638635507.446107) can0 19F01621#286E2F4E4D454132
(1638635507.446673) can0 19F01621#29303030FFFFFFFF
(1638635507.451421) can0 0CEA2100#16F001
(1638635507.452175) can0 19F01621#4041020102013D01
(1638635507.452715) can0 19F01621#414E4D4541323030
(1638635507.453218) can0 19F01621#4230206C69627261
(1638635507.453822) can0 19F01621#4372792C20687474
(1638635507.454398) can0 19F01621#4470733A2F2F6769
(1638635507.454859) can0 19F01621#45746875622E636F
(1638635507.455387) can0 19F01621#466D2F74746C6170
(1638635507.455925) can0 19F01621#4770616C61696E65
(1638635507.456466) can0 19F01621#486E2F4E4D454132
(1638635507.457067) can0 19F01621#49303030FFFFFFFF
(1638635507.457596) can0 09F80121#0D560224D531460D
(1638635507.460322) can0 09F80221#000000000000FFFF
(1638635507.481171) can0 09F20021#000000000021FFFF
(1638635507.554879) can0 09F80121#0D560224D531460D
(1638635507.581032) can0 09F20021#000000000021FFFF
(1638635507.588386) can0 09F20121#C01A0000008C102B
(1638635507.588898) can0 09F20121#C1890A050000E015
(1638635507.589498) can0 09F20121#C2640000000000FF
(1638635507.590090) can0 09F20121#C3000000000000FF
(1638635507.655040) can0 09F80121#0D560224D531460D
(1638635507.680911) can0 09F20021#000000000021FFFF
(1638635507.711808) can0 09F80221#000000000000FFFF
(1638635507.755603) can0 09F80121#0D560224D531460D
(1638635507.782883) can0 09F20021#000000000021FFFF
(1638635507.855491) can0 09F80121#0D560224D531460D
(1638635507.881387) can0 09F20021#000000000021FFFF
(1638635507.955591) can0 09F80121#0D560224D531460D
(1638635507.960617) can0 09F80221#000000000000FFFF
(1638635507.981755) can0 09F20021#000000000021FFFF
(1638635508.055280) can0 09F80121#0D560224D531460D
(1638635508.081026) can0 09F20021#000000000021FFFF
(1638635508.089098) can0 09F20121#E01A0000008C102B
(1638635508.089643) can0 09F20121#E1890A050000E015
(1638635508.090273) can0 09F20121#E2640000000000FF
(1638635508.090719) can0 09F20121#E3000000000000FF
(1638635508.155020) can0 09F80121#0D560224D531460D
(1638635508.159319) can0 19F21421#000A05CCFFBD6FFF
(1638635508.164473) can0 19F21421#0120034202BD6FFF
(1638635508.181139) can0 09F20021#000000000021FFFF
(1638635508.211136) can0 09F80221#000000000000FFFF
(1638635508.255420) can0 09F80121#0D560224D531460D
(1638635508.282380) can0 09F20021#000000000021FFFF
(1638635508.326345) can0 19F01421#808634089A024E4D
(1638635508.326914) can0 19F01421#8145413230303020
(1638635508.327429) can0 19F01421#8273696D756C6174
(1638635508.327947) can0 19F01421#836F722047505300
(1638635508.328560) can0 19F01421#8400000000000000
(1638635508.329103) can0 19F01421#850000312E322E30
(1638635508.329654) can0 19F01421#862E313039000000
(1638635508.330230) can0 19F01421#8700000000000000
(1638635508.330814) can0 19F01421#8800000000000000
(1638635508.331391) can0 19F01421#8900000000000031
(1638635508.331934) can0 19F01421#8A2E322E302E3000
(1638635508.332511) can0 19F01421#8B00000000000000
(1638635508.333090) can0 19F01421#8C00000000000000
(1638635508.333664) can0 19F01421#8D00000000000000
(1638635508.334224) can0 19F01421#8E00000032303937
(1638635508.334781) can0 19F01421#8F31353100000000
(1638635508.335360) can0 19F01421#9000000000000000
(1638635508.335934) can0 19F01421#9100000000000000
(1638635508.336512) can0 19F01421#9200000000000000
(1638635508.337084) can0 19F01421#930101FFFFFFFFFF
(1638635508.337652) can0 18EEFF21#FFFFBFFF009178C0
(1638635508.339344) can0 0CEA2100#14F001
(1638635508.340401) can0 19F01421#A086350864004553
(1638635508.340972) can0 19F01421#A15033324E4D4541
(1638635508.341507) can0 19F01421#A2324BFFFFFFFFFF
(1638635508.342085) can0 19F01421#A3FFFFFFFFFFFFFF
(1638635508.342666) can0 19F01421#A4FFFFFFFFFFFFFF
(1638635508.343213) can0 19F01421#A5FFFF6465763230
(1638635508.343759) can0 19F01421#A6323131323034FF
(1638635508.344339) can0 19F01421#A7FFFFFFFFFFFFFF
(1638635508.344916) can0 19F01421#A8FFFFFFFFFFFFFF
(1638635508.345482) can0 19F01421#A9FFFFFFFFFFFF64
(1638635508.346023) can0 19F01421#AA65763230323131
(1638635508.346587) can0 19F01421#AB323034FFFFFFFF
(1638635508.347162) can0 19F01421#ACFFFFFFFFFFFFFF
(1638635508.347740) can0 19F01421#ADFFFFFFFFFFFFFF
(1638635508.348308) can0 19F01421#AEFFFFFF31FFFFFF
(1638635508.348887) can0 19F01421#AFFFFFFFFFFFFFFF
(1638635508.349464) can0 19F01421#B0FFFFFFFFFFFFFF
(1638635508.350041) can0 19F01421#B1FFFFFFFFFFFFFF
(1638635508.350617) can0 19F01421#B2FFFFFFFFFFFFFF
(1638635508.351189) can0 19F01421#B30003FFFFFFFFFF
(1638635508.351766) can0 19F01421#C08634089A024E4D
(1638635508.352299) can0 19F01421#C145413230303020
(1638635508.352858) can0 19F01421#C273696D756C6174
(1638635508.353399) can0 19F01421#C36F72204C6F6700
(1638635508.353955) can0 19F01421#C400000000000000
(1638635508.354500) can0 19F01421#C50000312E322E30
(1638635508.355055) can0 19F01421#C62E313039000000
(1638635508.355630) can0 19F01421#C700000000000000
(1638635508.356215) can0 19F01421#C800000000000000
(1638635508.356789) can0 19F01421#C900000000000031
(1638635508.357335) can0 19F01421#CA2E322E302E3000
(1638635508.357916) can0 19F01421#CB00000000000000
(1638635508.358467) can0 19F01421#CC00000000000000
(1638635508.359072) can0 19F01421#CD00000000000000
(1638635508.359633) can0 19F01421#CE00000032303937
(1638635508.360191) can0 19F01421#CF31353000000000
(1638635508.360776) can0 19F01421#D000000000000000
(1638635508.361352) can0 19F01421#D100000000000000
(1638635508.361928) can0 19F01421#D200000000000000
(1638635508.362500) can0 19F01421#D30101FFFFFFFFFF
(1638635508.363122) can0 18EEFF21#FEFFBFFF008778C0
(1638635508.364735) can0 0CEA2100#14F001
(1638635508.365622) can0 19F01421#E086350864004553
(1638635508.366184) can0 19F01421#E15033324E4D4541
(1638635508.366736) can0 19F01421#E2324BFFFFFFFFFF
(1638635508.367313) can0 19F01421#E3FFFFFFFFFFFFFF
(1638635508.367891) can0 19F01421#E4FFFFFFFFFFFFFF
(1638635508.368457) can0 19F01421#E5FFFF6465763230
(1638635508.368982) can0 19F01421#E6323131323034FF
(1638635508.369558) can0 19F01421#E7FFFFFFFFFFFFFF
(1638635508.370134) can0 19F01421#E8FFFFFFFFFFFFFF
(1638635508.370706) can0 19F01421#E9FFFFFFFFFFFF64
(1638635508.371242) can0 19F01421#EA65763230323131
(1638635508.371804) can0 19F01421#EB323034FFFFFFFF
(1638635508.372378) can0 19F01421#ECFFFFFFFFFFFFFF
(1638635508.372959) can0 19F01421#EDFFFFFFFFFFFFFF
(1638635508.373531) can0 19F01421#EEFFFFFF31FFFFFF
(1638635508.374119) can0 19F01421#EFFFFFFFFFFFFFFF
(1638635508.374691) can0 19F01421#F0FFFFFFFFFFFFFF
(1638635508.375268) can0 19F01421#F1FFFFFFFFFFFFFF
(1638635508.375850) can0 19F01421#F2FFFFFFFFFFFFFF
(1638635508.376420) can0 19F01421#F30003FFFFFFFFFF
(1638635508.377011) can0 19F01421#008634089A024E4D
(1638635508.377548) can0 19F01421#0145413230303020
(1638635508.378081) can0 19F01421#0273696D756C6174
(1638635508.378622) can0 19F01421#036F722057696E64
(1638635508.379163) can0 19F01421#04206D6574657200
(1638635508.379715) can0 19F01421#050000312E322E30
(1638635508.380275) can0 19F01421#062E313039000000
(1638635508.380858) can0 19F01421#0700000000000000
(1638635508.381446) can0 19F01421#0800000000000000
(1638635508.382021) can0 19F01421#0900000000000031
(1638635508.382605) can0 19F01421#0A2E322E302E3000
(1638635508.383159) can0 19F01421#0B00000000000000
(1638635508.383743) can0 19F01421#0C00000000000000
(1638635508.384324) can0 19F01421#0D00000000000000
(1638635508.384883) can0 19F01421#0E00000032303937
(1638635508.385447) can0 19F01421#0F31343900000000
(1638635508.386032) can0 19F01421#1000000000000000
(1638635508.386620) can0 19F01421#1100000000000000
(1638635508.387199) can0 19F01421#1200000000000000
(1638635508.387777) can0 19F01421#130101FFFFFFFFFF
(1638635508.388364) can0 09F80121#0D560224D531460D
(1638635508.388938) can0 18EEFF21#FDFFBFFF0082AAC0
(1638635508.389487) can0 19F01421#208634089A024E4D
(1638635508.390019) can0 19F01421#2145413230303020
(1638635508.390574) can0 19F01421#2273696D756C6174
(1638635508.391093) can0 19F01421#236F72206F757473
(1638635508.391663) can0 19F01421#2469646520656E76
(1638635508.392196) can0 19F01421#256972312E322E30
(1638635508.392581) can0 0CEA2100#14F001
(1638635508.393154) can0 19F01421#262E313039000000
(1638635508.393699) can0 19F01421#2700000000000000
(1638635508.394286) can0 19F01421#2800000000000000
(1638635508.394887) can0 19F01421#2900000000000031
(1638635508.395419) can0 19F01421#2A2E322E302E3000
(1638635508.395999) can0 19F01421#2B00000000000000
(1638635508.396578) can0 19F01421#2C00000000000000
(1638635508.397160) can0 19F01421#2D00000000000000
(1638635508.397722) can0 19F01421#2E00000032303937
(1638635508.398286) can0 19F01421#2F31343800000000
(1638635508.398874) can0 19F01421#3000000000000000
(1638635508.399455) can0 19F01421#3100000000000000
(1638635508.400038) can0 19F01421#3200000000000000
(1638635508.400620) can0 19F01421#330101FFFFFFFFFF
(1638635508.401243) can0 09F20021#000000000021FFFF
(1638635508.401756) can0 19F01421#4086350864004553
(1638635508.402340) can0 19F01421#415033324E4D4541
(1638635508.402911) can0 19F01421#42324BFFFFFFFFFF
(1638635508.403457) can0 19F01421#43FFFFFFFFFFFFFF
(1638635508.404035) can0 19F01421#44FFFFFFFFFFFFFF
(1638635508.404590) can0 19F01421#45FFFF6465763230
(1638635508.405127) can0 19F01421#46323131323034FF
(1638635508.405679) can0 19F01421#47FFFFFFFFFFFFFF
(1638635508.406253) can0 19F01421#48FFFFFFFFFFFFFF
(1638635508.406825) can0 19F01421#49FFFFFFFFFFFF64
(1638635508.407361) can0 19F01421#4A65763230323131
(1638635508.407920) can0 19F01421#4B323034FFFFFFFF
(1638635508.408498) can0 19F01421#4CFFFFFFFFFFFFFF
(1638635508.409073) can0 19F01421#4DFFFFFFFFFFFFFF
(1638635508.409650) can0 19F01421#4EFFFFFF31FFFFFF
(1638635508.410231) can0 19F01421#4FFFFFFFFFFFFFFF
(1638635508.410808) can0 19F01421#50FFFFFFFFFFFFFF
(1638635508.411383) can0 19F01421#51FFFFFFFFFFFFFF
(1638635508.411959) can0 19F01421#52FFFFFFFFFFFFFF
(1638635508.412534) can0 19F01421#530003FFFFFFFFFF
(1638635508.413108) can0 18EEFF21#FCFFBFFF00A0AAC0
(1638635508.413667) can0 19F01421#608634089A024E4D
(1638635508.414202) can0 19F01421#6145413230303020
(1638635508.414738) can0 19F01421#6273696D756C6174
(1638635508.415271) can0 19F01421#636F7220656E6769
(1638635508.415675) can0 0CEA2100#14F001
(1638635508.416228) can0 19F01421#646E650000000000
(1638635508.416772) can0 19F01421#650000312E322E30
(1638635508.417325) can0 19F01421#662E313039000000
(1638635508.417904) can0 19F01421#6700000000000000
(1638635508.418481) can0 19F01421#6800000000000000
(1638635508.419054) can0 19F01421#6900000000000031
(1638635508.419601) can0 19F01421#6A2E322E302E3000
(1638635508.420182) can0 19F01421#6B00000000000000
(1638635508.420765) can0 19F01421#6C00000000000000
(1638635508.421342) can0 19F01421#6D00000000000000
(1638635508.421897) can0 19F01421#6E00000032303937
(1638635508.422457) can0 19F01421#6F31343700000000
(1638635508.423037) can0 19F01421#7000000000000000
(1638635508.423613) can0 19F01421#7100000000000000
(1638635508.424199) can0 19F01421#7200000000000000
(1638635508.424773) can0 19F01421#730101FFFFFFFFFF
(1638635508.425373) can0 18EEFF21#FBFFBFFF00A064C0
(1638635508.425909) can0 19F01421#8086350864004553
(1638635508.426436) can0 19F01421#815033324E4D4541
(1638635508.427006) can0 19F01421#82324BFFFFFFFFFF
(1638635508.427581) can0 19F01421#83FFFFFFFFFFFFFF
(1638635508.427986) can0 0CEA2100#14F001
(1638635508.428560) can0 19F01421#84FFFFFFFFFFFFFF
(1638635508.429096) can0 19F01421#85FFFF6465763230
(1638635508.429638) can0 19F01421#86323131323034FF
(1638635508.430222) can0 19F01421#87FFFFFFFFFFFFFF
(1638635508.430791) can0 19F01421#88FFFFFFFFFFFFFF
(1638635508.431367) can0 19F01421#89FFFFFFFFFFFF64
(1638635508.431905) can0 19F01421#8A65763230323131
(1638635508.432463) can0 19F01421#8B323034FFFFFFFF
(1638635508.433048) can0 19F01421#8CFFFFFFFFFFFFFF
(1638635508.433622) can0 19F01421#8DFFFFFFFFFFFFFF
(1638635508.434193) can0 19F01421#8EFFFFFF31FFFFFF
(1638635508.434773) can0 19F01421#8FFFFFFFFFFFFFFF
(1638635508.435360) can0 19F01421#90FFFFFFFFFFFFFF
(1638635508.435942) can0 19F01421#91FFFFFFFFFFFFFF
(1638635508.436526) can0 19F01421#92FFFFFFFFFFFFFF
(1638635508.437099) can0 19F01421#930003FFFFFFFFFF
(1638635508.437678) can0 19F01421#A08634089A024E4D
(1638635508.438205) can0 19F01421#A145413230303020
(1638635508.438740) can0 19F01421#A273696D756C6174
(1638635508.439273) can0 19F01421#A36F7220666C7569
(1638635508.439811) can0 19F01421#A464206C6576656C
(1638635508.440359) can0 19F01421#A50000312E322E30
(1638635508.440915) can0 19F01421#A62E313039000000
(1638635508.441490) can0 19F01421#A700000000000000
(1638635508.442075) can0 19F01421#A800000000000000
(1638635508.442647) can0 19F01421#A900000000000031
(1638635508.443191) can0 19F01421#AA2E322E302E3000
(1638635508.443769) can0 19F01421#AB00000000000000
(1638635508.444346) can0 19F01421#AC00000000000000
(1638635508.444921) can0 19F01421#AD00000000000000
(1638635508.445485) can0 19F01421#AE00000032303937
(1638635508.446044) can0 19F01421#AF31343600000000
(1638635508.446661) can0 19F01421#B000000000000000
(1638635508.447202) can0 19F01421#B100000000000000
(1638635508.447778) can0 19F01421#B200000000000000
(1638635508.448349) can0 19F01421#B30101FFFFFFFFFF
(1638635508.448941) can0 18EEFF21#FAFFBFFF009696C0
(1638635508.449478) can0 19F01421#C086350864004553
(1638635508.450008) can0 19F01421#C15033324E4D4541
(1638635508.450580) can0 19F01421#C2324BFFFFFFFFFF
(1638635508.451148) can0 19F01421#C3FFFFFFFFFFFFFF
(1638635508.451522) can0 0CEA2100#14F001
(1638635508.452125) can0 19F01421#C4FFFFFFFFFFFFFF
(1638635508.452665) can0 19F01421#C5FFFF6465763230
(1638635508.453207) can0 19F01421#C6323131323034FF
(1638635508.453762) can0 19F01421#C7FFFFFFFFFFFFFF
(1638635508.454365) can0 19F01421#C8FFFFFFFFFFFFFF
(1638635508.454932) can0 19F01421#C9FFFFFFFFFFFF64
(1638635508.455472) can0 19F01421#CA65763230323131
(1638635508.456037) can0 19F01421#CB323034FFFFFFFF
(1638635508.456616) can0 19F01421#CCFFFFFFFFFFFFFF
(1638635508.457192) can0 19F01421#CDFFFFFFFFFFFFFF
(1638635508.457761) can0 19F01421#CEFFFFFF31FFFFFF
(1638635508.458348) can0 19F01421#CFFFFFFFFFFFFFFF
(1638635508.458925) can0 19F01421#D0FFFFFFFFFFFFFF
(1638635508.459503) can0 19F01421#D1FFFFFFFFFFFFFF
(1638635508.460086) can0 19F01421#D2FFFFFFFFFFFFFF
(1638635508.460661) can0 19F01421#D30003FFFFFFFFFF
(1638635508.461267) can0 0DF01021#0000154AACE98223
(1638635508.461771) can0 19F01421#E086350864004553
(1638635508.462321) can0 19F01421#E15033324E4D4541
(1638635508.462911) can0 19F01421#E2324BFFFFFFFFFF
(1638635508.463475) can0 19F01421#E3FFFFFFFFFFFFFF
(1638635508.464072) can0 19F01421#E4FFFFFFFFFFFFFF
(1638635508.464595) can0 19F01421#E5FFFF6465763230
(1638635508.465110) can0 19F01421#E6323131323034FF
(1638635508.465718) can0 19F01421#E7FFFFFFFFFFFFFF
(1638635508.466291) can0 19F01421#E8FFFFFFFFFFFFFF
(1638635508.466861) can0 19F01421#E9FFFFFFFFFFFF64
(1638635508.467398) can0 19F01421#EA65763230323131
(1638635508.467956) can0 19F01421#EB323034FFFFFFFF
(1638635508.468533) can0 19F01421#ECFFFFFFFFFFFFFF
(1638635508.469114) can0 19F01421#EDFFFFFFFFFFFFFF
(1638635508.469685) can0 19F01421#EEFFFFFF31FFFFFF
(1638635508.470269) can0 19F01421#EFFFFFFFFFFFFFFF
(1638635508.470845) can0 19F01421#F0FFFFFFFFFFFFFF
(1638635508.471423) can0 19F01421#F1FFFFFFFFFFFFFF
(1638635508.472002) can0 19F01421#F2FFFFFFFFFFFFFF
(1638635508.472574) can0 19F01421#F30003FFFFFFFFFF
(1638635508.473151) can0 09F80121#0D560224D531460D
(1638635508.473713) can0 09F80221#000000000000FFFF
(1638635508.481536) can0 09F20021#000000000021FFFF
(1638635508.544728) can0 15FD0821#0000008F70FFFFFF
(1638635508.551423) can0 15FD0821#00010455735573FF
(1638635508.554966) can0 09F80121#0D560224D531460D
(1638635508.558659) can0 19FD0921#00010078370429FF
(1638635508.561767) can0 15FD0A21#00000008750F00FF
(1638635508.581243) can0 09F20021#000000000021FFFF
(1638635508.589590) can0 09F20121#001A0000008C102B
(1638635508.590210) can0 09F20121#01890A050000E015
(1638635508.590721) can0 09F20121#02640000000000FF
(1638635508.591308) can0 09F20121#03000000000000FF
(1638635508.655129) can0 09F80121#0D560224D531460D
(1638635508.682291) can0 09F20021#000000000021FFFF
(1638635508.697279) can0 19F21121#00E204A00F0000FF
(1638635508.701200) can0 19F21121#012F04AC0D0000FF
(1638635508.706371) can0 19F21121#128306B80B0000FF
(1638635508.711417) can0 19F21121#13F40188130000FF
(1638635508.713904) can0 09F80221#000000000000FFFF
(1638635508.755279) can0 09F80121#0D560224D531460D
(1638635508.781561) can0 09F20021#000000000021FFFF
(1638635508.854960) can0 09F80121#0D560224D531460D
(1638635508.881908) can0 09F20021#000000000021FFFF
(1638635508.955510) can0 09F80121#0D560224D531460D
(1638635508.961417) can0 09F80221#000000000000FFFF
(1638635508.981855) can0 09F20021#000000000021FFFF
(1638635509.054993) can0 09F80121#0D560224D531460D
(1638635509.081646) can0 09F20021#000000000021FFFF
(1638635509.090051) can0 09F20121#201A0000008C102B
(1638635509.090500) can0 09F20121#21890A050000E015
(1638635509.091160) can0 09F20121#22640000000000FF
(1638635509.091679) can0 09F20121#23000000000000FF
(1638635509.155857) can0 09F80121#0D560224D531460D
(1638635509.181766) can0 09F20021#000000000021FFFF
(1638635509.210798) can0 09F80221#000000000000FFFF
(1638635509.254846) can0 09F80121#0D560224D531460D
(1638635509.282157) can0 09F20021#000000000021FFFF
(1638635509.339300) can0 0CEA2100#16F001
(1638635509.340647) can0 19F01621#6041020102013D01
(1638635509.341104) can0 19F01621#614E4D4541323030
(1638635509.341784) can0 19F01621#6230206C69627261
